(0000000000.000000) vcan0 720#01010400000003
(0000000000.016396) vcan0 651#C00469AF36554100
(0000000000.016396) vcan0 470#0001000010
(0000000000.016396) vcan0 35F#3F00000040240000
(0000000000.016396) vcan0 677#05C2030017000301
(0000000000.016396) vcan0 657#0000000008000000
(0000000000.016396) vcan0 531#00204060
(0000000000.016396) vcan0 727#01010400040000
(0000000000.016396) vcan0 67C#1C82
(0000000000.016396) vcan0 6C8#11C2
(0000000000.016396) vcan0 35F#3F00000040200000
(0000000000.022967) vcan0 557#0000000808000000
(0000000000.022967) vcan0 621#00DF19000064B0
(0000000000.022967) vcan0 6C9#15C1
(0000000000.027533) vcan0 35F#3B80000040200000
(0000000000.029549) vcan0 2C3#01
(0000000000.036997) vcan0 320#0100000100010080
(0000000000.036997) vcan0 62F#01901790
(0000000000.036997) vcan0 65D#9B000000000000C0
(0000000000.045069) vcan0 5D0#C00469AF36554100
(0000000000.045069) vcan0 575#01220000
(0000000000.045069) vcan0 420#CAA7A5000064FF00
(0000000000.062808) vcan0 3E1#C000FF0000000000
(0000000000.062808) vcan0 320#0100000100020080
(0000000000.062808) vcan0 470#0001000010
(0000000000.062808) vcan0 531#00205070
(0000000000.062808) vcan0 677#35C3380008000000
(0000000000.062808) vcan0 657#000040091C000000
(0000000000.062808) vcan0 393#FB00000000000000
(0000000000.062808) vcan0 67C#1AC2
(0000000000.081962) vcan0 6C8#1202
(0000000000.081962) vcan0 373#000014829022
(0000000000.081962) vcan0 320#0100000100030080
(0000000000.081962) vcan0 343#00A000
(0000000000.081962) vcan0 651#C00469AF36554100
(0000000000.081962) vcan0 67D#0C82030032000300
(0000000000.081962) vcan0 658#7000000F409C2500
(0000000000.099549) vcan0 67C#1C42
(0000000000.099549) vcan0 320#0100000100040080
(0000000000.099549) vcan0 720#01010400040003
(0000000000.103660) vcan0 470#0001000010
(0000000000.103660) vcan0 62E#55A7F1F70F4E17
(0000000000.103660) vcan0 531#00206040
(0000000000.105199) vcan0 677#35C40A
(0000000000.108319) vcan0 657#0000C00D1E083000
(0000000000.113493) vcan0 320#0100000100050080
(0000000000.113493) vcan0 60E#0802
(0000000000.113493) vcan0 6C8#1242
(0000000000.121384) vcan0 35F#3B80000040200000
(0000000000.121384) vcan0 373#000014829022
(0000000000.121384) vcan0 655#7718403F1F0830C0
(0000000000.123379) vcan0 621#00DF19000064B0
(0000000000.126096) vcan0 3E1#C000FF0000000000
(0000000000.141384) vcan0 2C3#01
(0000000000.141384) vcan0 320#0100000100060080
(0000000000.141384) vcan0 67C#1C81
(0000000000.141384) vcan0 5D0#C00469AF36554100
(0000000000.141384) vcan0 520#644400DF1955A701
(0000000000.143400) vcan0 661#8000000000000000
(0000000000.154864) vcan0 67D#80174C8103003200
(0000000000.154864) vcan0 3E1#C000FF0000000400
(0000000000.154864) vcan0 320#0100000100070080
(0000000000.154864) vcan0 470#0001000010
(0000000000.154864) vcan0 531#00207050
(0000000000.154864) vcan0 575#01220000
(0000000000.154864) vcan0 677#35D400
(0000000000.154864) vcan0 635#0000FE
(0000000000.171883) vcan0 657#0000C03D1F083040
(0000000000.171883) vcan0 6C8#1302
(0000000000.171883) vcan0 320#0100000100080080
(0000000000.180916) vcan0 343#00A000
(0000000000.180916) vcan0 651#C00469AF36554100
(0000000000.180916) vcan0 658#7000000A5FAA0000
(0000000000.191184) vcan0 320#0100000100090080
(0000000000.194733) vcan0 67D#C003000800380180
(0000000000.199288) vcan0 720#01010400040003
(0000000000.201985) vcan0 470#0001000010
(0000000000.203578) vcan0 531#002080A0
(0000000000.221130) vcan0 677#35C2030017000301
(0000000000.221130) vcan0 657#0000C03F1F083040
(0000000000.221130) vcan0 320#01000001000A0080
(0000000000.221130) vcan0 62F#01901790
(0000000000.221130) vcan0 727#01010400040000
(0000000000.221130) vcan0 6C8#1342
(0000000000.221130) vcan0 35F#BB80000000200000
(0000000000.221130) vcan0 373#000014829022
(0000000000.221130) vcan0 621#00DF19000064B0
(0000000000.226669) vcan0 3E1#C000FF0000000400
(0000000000.228666) vcan0 2C3#01
(0000000000.231670) vcan0 320#01000001000B0080
(0000000000.241002) vcan0 5D0#C00469AF36554100
(0000000000.249148) vcan0 420#CAA7A5000064FF00
(0000000000.249148) vcan0 67D#C160000000000A02
(0000000000.249148) vcan0 5C1#00000060
(0000000000.249148) vcan0 3E1#E000FF0000000000
(0000000000.251309) vcan0 320#01000001000C0080
(0000000000.271119) vcan0 470#0001000010
(0000000000.271119) vcan0 531#002090B0
(0000000000.271119) vcan0 657#0000C03F1F083040
(0000000000.271119) vcan0 393#FB00000000000000
(0000000000.271119) vcan0 6C8#1382
(0000000000.271119) vcan0 320#01000001000D0080
(0000000000.280338) vcan0 343#00A000
(0000000000.280338) vcan0 651#C00469AF36554100
(0000000000.299842) vcan0 658#7000000A5FAA0000
(0000000000.299842) vcan0 320#01000001000E0080
(0000000000.299842) vcan0 67D#C208FFFF0800
(0000000000.299842) vcan0 720#01010400040003
(0000000000.311677) vcan0 470#0001000010
(0000000000.311677) vcan0 531#0020A080
(0000000000.311677) vcan0 657#0000C03F1F083040
(0000000000.311677) vcan0 320#01000001000F0080
(0000000000.321722) vcan0 35F#BB80000000200000
(0000000000.321722) vcan0 373#000014829022
(0000000000.321722) vcan0 621#00DF19000064B0
(0000000000.321722) vcan0 373#020014829022
(0000000000.327052) vcan0 3E1#E000FF0000000000
(0000000000.328861) vcan0 2C3#01
(0000000000.332085) vcan0 320#0100000100000080
(0000000000.351282) vcan0 5D0#C00469AF36554100
(0000000000.351282) vcan0 520#B88700DF1955A701
(0000000000.351282) vcan0 320#0100000100010080
(0000000000.371442) vcan0 470#0001000010
(0000000000.371442) vcan0 531#0020B090
(0000000000.371442) vcan0 575#01220000
(0000000000.371442) vcan0 635#0000FE
(0000000000.371442) vcan0 657#0000C03F1F083040
(0000000000.371442) vcan0 320#0100000100020080
(0000000000.376439) vcan0 343#00A000
(0000000000.376439) vcan0 651#C00469AF36554100
(0000000000.380987) vcan0 658#7000000A5FAA0000
(0000000000.391674) vcan0 320#0100000100030080
(0000000000.399503) vcan0 720#01010400040003
(0000000000.401431) vcan0 470#0001000010
(0000000000.411570) vcan0 373#020004829022
(0000000000.411570) vcan0 531#0020C0E0
(0000000000.411570) vcan0 657#0000C03F1F083040
(0000000000.411570) vcan0 320#0100000100040080
(0000000000.411570) vcan0 62F#01901790
(0000000000.426452) vcan0 727#01010400040000
(0000000000.426452) vcan0 35F#BB80000000200000
(0000000000.426452) vcan0 373#020004829022
(0000000000.426452) vcan0 621#00DF19000064B0
(0000000000.426452) vcan0 3E1#E000FF0000000000
(0000000000.428454) vcan0 2C3#01
(0000000000.441677) vcan0 3E1#E000FF0000000400
(0000000000.441677) vcan0 320#0100000100050080
(0000000000.441677) vcan0 5D0#C00469AF36554100
(0000000000.441677) vcan0 420#CAA7A5000064FF00
(0000000000.451823) vcan0 320#0100000100060080
(0000000000.451823) vcan0 470#0001000010
(0000000000.453830) vcan0 531#0020D0F0
(0000000000.468995) vcan0 657#0000C03F1F083040
(0000000000.468995) vcan0 393#FB00000000000000
(0000000000.471965) vcan0 320#0100000100070080
(0000000000.481553) vcan0 343#00A000
(0000000000.481553) vcan0 651#C00469AF36554100
(0000000000.481553) vcan0 658#7000000A5F870000
(0000000000.491922) vcan0 320#0100000100080080
(0000000000.499273) vcan0 720#04010000040003
(0000000000.516951) vcan0 470#0001000010
(0000000000.516951) vcan0 531#0020E0C0
(0000000000.516951) vcan0 657#0000C03F1F083040
(0000000000.516951) vcan0 320#0100000100090080
(0000000000.516951) vcan0 5F3#0000000000000000
(0000000000.516951) vcan0 6C8#11C2
(0000000000.516951) vcan0 35F#BA80000000200000
(0000000000.516951) vcan0 373#020004829022
(0000000000.527162) vcan0 557#0000400F0E002040
(0000000000.527162) vcan0 621#00DF19000064B0
(0000000000.527162) vcan0 3E1#E000FF0000000400
(0000000000.528808) vcan0 2C3#01
(0000000000.531711) vcan0 320#01000001000A0080
(0000000000.546125) vcan0 5D0#C00469AF36554100
(0000000000.546125) vcan0 520#57C400DF1955A701
(0000000000.551863) vcan0 320#01000001000B0080
(0000000000.551863) vcan0 470#0001000010
(0000000000.562110) vcan0 531#0020F0D0
(0000000000.562110) vcan0 575#01220000
(0000000000.562110) vcan0 635#0000FE
(0000000000.562110) vcan0 657#0000C03F1F083040
(0000000000.562110) vcan0 6C8#1202
(0000000000.581383) vcan0 67C#1AC2
(0000000000.581383) vcan0 320#01000001000C0080
(0000000000.581383) vcan0 343#00A000
(0000000000.581383) vcan0 651#C00469AF36554100
(0000000000.581383) vcan0 658#7000000A5F870000
(0000000000.591380) vcan0 320#01000001000D0080
(0000000000.599427) vcan0 720#04010000000003
(0000000000.601299) vcan0 470#0001000010
(0000000000.602875) vcan0 531#00200020
(0000000000.606385) vcan0 657#0000C03F1F083040
(0000000000.612302) vcan0 320#01000001000E0080
(0000000000.612302) vcan0 62F#01901790
(0000000000.626593) vcan0 727#01010400040000
(0000000000.626593) vcan0 6C8#1242
(0000000000.626593) vcan0 67C#1C42
(0000000000.626593) vcan0 35F#BA80000000200000
(0000000000.626593) vcan0 373#020004829022
(0000000000.626593) vcan0 655#7718403F1F0830C0
(0000000000.626593) vcan0 621#00DF19000064B0
(0000000000.626593) vcan0 3E1#E000FF0000000400
(0000000000.628623) vcan0 2C3#01
(0000000000.630622) vcan0 320#01000001000F0080
(0000000000.641033) vcan0 5D0#C00469AF36554100
(0000000000.656147) vcan0 420#CAA7A5000064FF00
(0000000000.656147) vcan0 320#0100000100000080
(0000000000.656147) vcan0 470#0001000010
(0000000000.656147) vcan0 531#00201030
(0000000000.656147) vcan0 657#0000C03F1F083040
(0000000000.656147) vcan0 393#FB00000000000000
(0000000000.662152) vcan0 6C8#1302
(0000000000.671413) vcan0 320#0100000100010080
(0000000000.680964) vcan0 343#00A000
(0000000000.680964) vcan0 651#C00469AF36554100
(0000000000.680964) vcan0 658#7000000A5F870000
(0000000000.691180) vcan0 320#0100000100020080
(0000000000.699736) vcan0 720#04010000000003
(0000000000.721437) vcan0 470#0001000010
(0000000000.721437) vcan0 531#00202000
(0000000000.721437) vcan0 657#0000C03F1F083040
(0000000000.721437) vcan0 320#0100000100030080
(0000000000.721437) vcan0 6C8#1342
(0000000000.721437) vcan0 35F#BA80000000200000
(0000000000.721437) vcan0 373#020004829022
(0000000000.721437) vcan0 621#00DF19000064B0
(0000000000.726227) vcan0 3E1#E000FF0000000400
(0000000000.741395) vcan0 3E1#E000FF0000008400
(0000000000.741395) vcan0 2C3#01
(0000000000.741395) vcan0 320#0100000100040080
(0000000000.741395) vcan0 5D0#C00469AF36554100
(0000000000.741395) vcan0 520#050300DF1955A701
(0000000000.751659) vcan0 320#0100000100050080
(0000000000.771433) vcan0 470#0001000010
(0000000000.771433) vcan0 531#00203010
(0000000000.771433) vcan0 575#01220000
(0000000000.771433) vcan0 635#0000FE
(0000000000.771433) vcan0 657#0000C03F1F083040
(0000000000.771433) vcan0 6C8#1382
(0000000000.771433) vcan0 320#0100000100060080
(0000000000.780008) vcan0 343#00A000
(0000000000.780008) vcan0 651#C00469AF36554100
(0000000000.798879) vcan0 658#7000000A5F870000
(0000000000.798879) vcan0 320#0100000100070080
(0000000000.798879) vcan0 720#04010000000003
(0000000000.800913) vcan0 470#0001000010
(0000000000.802921) vcan0 531#00204060
(0000000000.805922) vcan0 657#0000C03F1F083040
(0000000000.811768) vcan0 320#2000000100080080
(0000000000.811768) vcan0 62F#01901790
(0000000000.829521) vcan0 727#01010500040000
(0000000000.830513) vcan0 651#C00469AF3655C100
(0000000000.830513) vcan0 35F#BA80000000200000
(0000000000.830513) vcan0 373#020004829022
(0000000000.830513) vcan0 621#005828000064B0
(0000000000.830513) vcan0 3E1#E000FF0000008400
(0000000000.830513) vcan0 2C3#07
(0000000000.831933) vcan0 320#2200000100090080
(0000000000.833412) vcan0 575#C7220000
(0000000000.838654) vcan0 67D#4C8F00
(0000000000.840875) vcan0 5D0#C00469AF3655C100
(0000000000.871248) vcan0 420#8AA5A5000064FF00
(0000000000.871248) vcan0 62F#01010101
(0000000000.871248) vcan0 3E3#FFFFFF0000FE00FF
(0000000000.871248) vcan0 3E1#6000FF0000008400
(0000000000.871248) vcan0 320#22000001000A0080
(0000000000.871248) vcan0 470#8001000010
(0000000000.871248) vcan0 531#00205070
(0000000000.871248) vcan0 657#0000C03F1F083040
(0000000000.871248) vcan0 393#FB00000000000000
(0000000000.871248) vcan0 320#22000001000B0088
(0000000000.876776) vcan0 343#00A000
(0000000000.876776) vcan0 651#C00469AF3655C100
(0000000000.881776) vcan0 658#7000010A5F870000
(0000000000.883790) vcan0 58F#00F0FF7F00000019
(0000000000.883790) vcan0 580#8100000000004001
(0000000000.887344) vcan0 288#366E200000680000
(0000000000.891974) vcan0 480#1C2C000018000028
(0000000000.891974) vcan0 48A#1000000000000010
(0000000000.891974) vcan0 555#1800690029000000
(0000000000.891974) vcan0 320#22000001000C0088
(0000000000.897551) vcan0 280#0100000000000D00
(0000000000.906079) vcan0 58C#80C02E00FF000000
(0000000000.906079) vcan0 720#04010100040003
(0000000000.906079) vcan0 470#8001000010
(0000000000.906079) vcan0 531#00206040
(0000000000.906079) vcan0 657#1100C03F1F083040
(0000000000.921326) vcan0 280#0100000000000D00
(0000000000.921326) vcan0 288#4E6E20000068758B
(0000000000.921326) vcan0 480#512C000018000065
(0000000000.921326) vcan0 48A#2000000000000020
(0000000000.921326) vcan0 555#1800690029000000
(0000000000.921326) vcan0 320#22000001000D0088
(0000000000.921326) vcan0 35F#BA80000000200000
(0000000000.921326) vcan0 373#020004829022
(0000000000.921326) vcan0 280#0100000000001000
(0000000000.921326) vcan0 621#005828000064B0
(0000000000.923342) vcan0 221#48C00010290310
(0000000000.926420) vcan0 3E1#6000FF0000008400
(0000000000.937011) vcan0 540#1000FF00FF000000
(0000000000.937011) vcan0 280#0100000000001000
(0000000000.937011) vcan0 2C3#07
(0000000000.937011) vcan0 288#4E6E200000687908
(0000000000.937011) vcan0 480#512C000018000065
(0000000000.937011) vcan0 48A#3000000000000030
(0000000000.937011) vcan0 555#1800690029000000
(0000000000.937011) vcan0 320#22000001000E0088
(0000000000.937011) vcan0 248#21D02903D00410
(0000000000.937011) vcan0 5C1#F0000060
(0000000000.937011) vcan0 540#2000FF00FF000000
(0000000000.952397) vcan0 280#0100000000000E00
(0000000000.952397) vcan0 5D0#C00469AF3655C100
(0000000000.952397) vcan0 520#644400582855A701
(0000000000.952397) vcan0 4D0#A00459FF32FF
(0000000000.952397) vcan0 540#3400FF00FF000000
(0000000000.952397) vcan0 280#0100000000000E00
(0000000000.952397) vcan0 288#4E6E200000686860
(0000000000.952397) vcan0 480#512C000018000065
(0000000000.952397) vcan0 48A#4000000000000040
(0000000000.952397) vcan0 320#22000001000F0088
(0000000000.952397) vcan0 470#8001000010
(0000000000.952397) vcan0 329#A10F8AFF4AFF
(0000000000.967642) vcan0 555#1800690029000000
(0000000000.967642) vcan0 531#00207050
(0000000000.967642) vcan0 575#C7220000
(0000000000.967642) vcan0 657#1300C03F1F083040
(0000000000.967642) vcan0 540#4400FF00FF000000
(0000000000.967642) vcan0 280#0100000000000E00
(0000000000.967642) vcan0 635#0000FE
(0000000000.967642) vcan0 3D0#000108000065
(0000000000.967642) vcan0 4D0#2002702107436F6E
(0000000000.967642) vcan0 631#0E010000
(0000000000.967642) vcan0 540#5400FF00FF000000
(0000000000.967642) vcan0 5C1#00000060
(0000000000.967642) vcan0 280#0100000000000E00
(0000000000.970427) vcan0 288#4E6E200000686860
(0000000000.970427) vcan0 480#512C000018000065
(0000000000.970427) vcan0 48A#5000000000000050
(0000000000.983984) vcan0 555#1800690029000000
(0000000000.983984) vcan0 320#2200000100000088
(0000000000.983984) vcan0 4D0#2176656E69656E63
(0000000000.983984) vcan0 343#00A000
(0000000000.983984) vcan0 651#C00469AF3655C100
(0000000000.983984) vcan0 540#6400FF00FF000000
(0000000000.983984) vcan0 280#0100000000000E00
(0000000000.983984) vcan0 3D0#000108000065
(0000000000.983984) vcan0 658#7000010A5F850000
(0000000000.983984) vcan0 373#020008829022
(0000000000.983984) vcan0 4D0#1265
(0000000000.986984) vcan0 540#7400FF00FF000000
(0000000000.988349) vcan0 280#0100000000000E00
(0000000000.991695) vcan0 288#8B6E200000686860
(0000000000.991695) vcan0 575#C7220080
(0000000000.991695) vcan0 480#842C0000180000B0
(0000000000.991695) vcan0 320#22000001000100A8
(0000000000.991695) vcan0 48A#6000000000000060
(0000000000.991695) vcan0 329#B3
(0000000000.991695) vcan0 555#1800690029000000
(0000000000.997247) vcan0 540#8400FF00FF000026
(0000000001.016718) vcan0 280#0100000000000E00
(0000000001.016718) vcan0 58C#80C02E00B9000000
(0000000001.016718) vcan0 720#04010100040003
(0000000001.016718) vcan0 3D0#008108000065
(0000000001.016718) vcan0 470#8001000010
(0000000001.016718) vcan0 329#1023080000
(0000000001.016718) vcan0 373#020018829022
(0000000001.016718) vcan0 531#002080A0
(0000000001.016718) vcan0 657#5300C03F1F083040
(0000000001.016718) vcan0 540#9400FF00FF001026
(0000000001.016718) vcan0 280#0100000000000E00
(0000000001.016718) vcan0 288#8B6E200000687C60
(0000000001.016718) vcan0 480#842C0000180000B0
(0000000001.016718) vcan0 48A#7000000000000070
(0000000001.016718) vcan0 555#1800690029000000
(0000000001.016718) vcan0 320#22000001000200A8
(0000000001.016718) vcan0 5F3#0000000000000000
(0000000001.016718) vcan0 60E#0802
(0000000001.016718) vcan0 62F#01010101
(0000000001.016718) vcan0 727#04010100040000
(0000000001.016718) vcan0 4D0#B1
(0000000001.016718) vcan0 6C8#11C2
(0000000001.016718) vcan0 35F#BA80000000200000
(0000000001.016718) vcan0 373#020018829022
(0000000001.030888) vcan0 540#A400FF00FF001026
(0000000001.030888) vcan0 544#0000000000000000
(0000000001.030888) vcan0 280#0100000000000E00
(0000000001.030888) vcan0 3D0#008108000065
(0000000001.030888) vcan0 557#4300400F1E002040
(0000000001.030888) vcan0 3E1#2000270000008400
(0000000001.030888) vcan0 621#005828000064B0
(0000000001.030888) vcan0 4D0#A8
(0000000001.030888) vcan0 677#35C2030017000301
(0000000001.030888) vcan0 3E1#2000270000008400
(0000000001.030888) vcan0 540#B400FF00FF001026
(0000000001.030888) vcan0 280#0100000000000E00
(0000000001.030888) vcan0 2C3#07
(0000000001.030888) vcan0 288#8B6E200000687C60
(0000000001.030888) vcan0 480#842C0000180000B0
(0000000001.047031) vcan0 48A#8000000000000080
(0000000001.047031) vcan0 555#1800690029000000
(0000000001.047031) vcan0 320#22000001000300A8
(0000000001.047031) vcan0 329#A8
(0000000001.047031) vcan0 5C1#00000060
(0000000001.047031) vcan0 65D#9B55A7F1F70F4E17
(0000000001.047031) vcan0 540#C400FF00FF00100F
(0000000001.047031) vcan0 280#0100000000000E00
(0000000001.047031) vcan0 3D0#008108000065
(0000000001.047031) vcan0 5D0#C00469AF3655C100
(0000000001.047031) vcan0 420#8AA5A5000064FF00
(0000000001.047031) vcan0 540#D400FF00FF00100F
(0000000001.062140) vcan0 280#0100000000000E00
(0000000001.062140) vcan0 288#8B6E200000687C60
(0000000001.062140) vcan0 480#842C0000180000B0
(0000000001.062140) vcan0 48A#9000000000000090
(0000000001.062140) vcan0 470#8001000010
(0000000001.062140) vcan0 555#1800690029000000
(0000000001.062140) vcan0 320#22000001000400A8
(0000000001.062140) vcan0 531#002090B0
(0000000001.062140) vcan0 657#5300C03F1F083040
(0000000001.062140) vcan0 393#FB00000000000000
(0000000001.062140) vcan0 540#E400FF00FF00100F
(0000000001.062140) vcan0 280#0100000000000E00
(0000000001.062140) vcan0 3D0#008108000065
(0000000001.062140) vcan0 6C8#1202
(0000000001.075752) vcan0 67C#1AC2
(0000000001.075752) vcan0 540#F400FF00FF00100F
(0000000001.075752) vcan0 280#0100000000000E00
(0000000001.075752) vcan0 288#E86E200000687C60
(0000000001.075752) vcan0 480#C22C0000180000F6
(0000000001.075752) vcan0 48A#A0000000000000A0
(0000000001.075752) vcan0 555#1800690029000000
(0000000001.075752) vcan0 320#22000001000500A8
(0000000001.075752) vcan0 343#00A000
(0000000001.091298) vcan0 651#C00469AF3655C100
(0000000001.091298) vcan0 540#0400FF00FF001026
(0000000001.091298) vcan0 5C0#409180A6250009DB
(0000000001.091298) vcan0 280#0100000000000E00
(0000000001.091298) vcan0 3D0#008108000065
(0000000001.091298) vcan0 658#7000010A5F850000
(0000000001.091298) vcan0 1A0#005388FF00FE0090
(0000000001.091298) vcan0 1AC#FC00000069050090
(0000000001.091298) vcan0 2A0#0000002C0000002C
(0000000001.091298) vcan0 5A0#2B89FF07000050AB
(0000000001.091298) vcan0 540#1400FF00FF001026
(0000000001.091298) vcan0 280#0100000000000E00
(0000000001.091298) vcan0 288#E86E200000687C60
(0000000001.091298) vcan0 480#C22C0000180000F6
(0000000001.091298) vcan0 48A#B0000000000000B0
(0000000001.091298) vcan0 555#1800690029000000
(0000000001.107528) vcan0 320#22000001000600A8
(0000000001.107528) vcan0 1A0#005388FF00FE0091
(0000000001.107528) vcan0 2A0#0000002C0000103C
(0000000001.107528) vcan0 540#2400FF00FF001026
(0000000001.107528) vcan0 280#0100000000000E00
(0000000001.107528) vcan0 58C#80C02E00B9000000
(0000000001.107528) vcan0 5C0#419180A6250009DA
(0000000001.107528) vcan0 720#04010100040003
(0000000001.107528) vcan0 3D0#008108000065
(0000000001.107528) vcan0 470#8001000010
(0000000001.107528) vcan0 62E#55A7F1F70FCE17
(0000000001.107528) vcan0 1A0#005388FF00FE0092
(0000000001.107528) vcan0 531#0020A080
(0000000001.107528) vcan0 1AC#FD01000069050090
(0000000001.107528) vcan0 2A0#0000002C0000200C
(0000000001.107528) vcan0 5A0#2B89FF17000050AB
(0000000001.107528) vcan0 657#5710C03F1F083040
(0000000001.107528) vcan0 540#3400FF00FF001026
(0000000001.107528) vcan0 280#0100000000000E00
(0000000001.113524) vcan0 288#E86E200000687C60
(0000000001.113524) vcan0 480#C22C0000180000F6
(0000000001.113524) vcan0 48A#C0000000000000C0
(0000000001.113524) vcan0 555#1800690029000000
(0000000001.113524) vcan0 320#22020001000700AE
(0000000001.113524) vcan0 6C8#1242
(0000000001.123115) vcan0 1A0#005388FF00FE0093
(0000000001.123115) vcan0 67C#1C42
(0000000001.123115) vcan0 2A0#0000002C0000301C
(0000000001.123115) vcan0 35F#BA80000000200000
(0000000001.123115) vcan0 373#020018829022
(0000000001.123115) vcan0 540#4400FF00FF00100F
(0000000001.123115) vcan0 544#000000000000005A
(0000000001.123115) vcan0 280#0100000000000E00
(0000000001.123115) vcan0 5C0#429180A6250009D9
(0000000001.123115) vcan0 3D0#008108000065
(0000000001.123115) vcan0 655#7718403F1F0830C0
(0000000001.123115) vcan0 621#205828000064B0
(0000000001.123115) vcan0 1A0#005388FF00FE0094
(0000000001.140177) vcan0 1AC#FE02000069050090
(0000000001.140177) vcan0 2A0#0000002C0000406C
(0000000001.140177) vcan0 5A0#2B89FF27000050AB
(0000000001.140177) vcan0 3E1#2000270000008400
(0000000001.140177) vcan0 540#5400FF00FF00100F
(0000000001.140177) vcan0 280#0100000000000C00
(0000000001.140177) vcan0 2C3#07
(0000000001.140177) vcan0 288#E86E200400687A60
(0000000001.140177) vcan0 480#C22C0000180000F6
(0000000001.140177) vcan0 48A#D0000000000000D0
(0000000001.140177) vcan0 555#1800690029000000
(0000000001.140177) vcan0 320#22020001000800AE
(0000000001.140177) vcan0 1A0#005388FF00FE0095
(0000000001.140177) vcan0 2A0#0000002C0000507C
(0000000001.140177) vcan0 5C1#00000060
(0000000001.140177) vcan0 661#8000000000000000
(0000000001.140177) vcan0 540#6400FF00FF00100F
(0000000001.140177) vcan0 280#0100000000000C00
(0000000001.140177) vcan0 5C0#439180A6250009D8
(0000000001.140177) vcan0 3D0#008108000065
(0000000001.154703) vcan0 5D0#C00469AF3655C100
(0000000001.154703) vcan0 520#B88700582855A701
(0000000001.154703) vcan0 1A0#005388FF00FE0096
(0000000001.154703) vcan0 1AC#FF03000069050090
(0000000001.154703) vcan0 2A0#0000002C0000604C
(0000000001.154703) vcan0 5A0#2B89FF37000050AB
(0000000001.154703) vcan0 540#7400FF00FF00100F
(0000000001.154703) vcan0 280#0100000000000C00
(0000000001.154703) vcan0 288#366E200400687C60
(0000000001.154703) vcan0 480#1C2C000018000028
(0000000001.154703) vcan0 48A#E0000000000000E0
(0000000001.154703) vcan0 470#8001000010
(0000000001.154703) vcan0 320#22020001000900AE
(0000000001.154703) vcan0 56A#1100000000000011
(0000000001.154703) vcan0 555#1800690029000000
(0000000001.154703) vcan0 531#0020B090
(0000000001.154703) vcan0 575#C7220080
(0000000001.154703) vcan0 1A0#005388FF00FE0097
(0000000001.154703) vcan0 2A0#0000002C0000705C
(0000000001.154703) vcan0 635#0000FE
(0000000001.170739) vcan0 050#0005181D
(0000000001.170739) vcan0 550#0000000000000000
(0000000001.170739) vcan0 657#7710C03F1F083040
(0000000001.170739) vcan0 540#8400FF00FF001026
(0000000001.170739) vcan0 280#0100000000000C00
(0000000001.170739) vcan0 5C0#449180A6250009DF
(0000000001.170739) vcan0 3D0#008108000065
(0000000001.170739) vcan0 6C8#1302
(0000000001.170739) vcan0 1A0#0053000000FE0098
(0000000001.170739) vcan0 1AC#F804000069050090
(0000000001.170739) vcan0 2A0#0000002C000080AC
(0000000001.170739) vcan0 5A0#2B010047000050AB
(0000000001.170739) vcan0 540#9400FF00FF001026
(0000000001.170739) vcan0 280#0100000000000C00
(0000000001.170739) vcan0 288#366E200400687C60
(0000000001.186267) vcan0 480#1C2C000018000028
(0000000001.186267) vcan0 48A#F0000000000000F0
(0000000001.186267) vcan0 555#1800690029000000
(0000000001.186267) vcan0 320#22020001000A00AE
(0000000001.186267) vcan0 1A0#0053000000FE0099
(0000000001.186267) vcan0 2A0#0000002C000090BC
(0000000001.186267) vcan0 050#0005282D
(0000000001.187264) vcan0 343#00A000
(0000000001.187264) vcan0 651#C00469AF3655C100
(0000000001.187264) vcan0 540#A400FF00FF001026
(0000000001.187264) vcan0 280#0100000000000C00
(0000000001.187264) vcan0 5C0#459180A6250009DE
(0000000001.187264) vcan0 3D0#008108000065
(0000000001.187264) vcan0 658#7000010A5F850000
(0000000001.187264) vcan0 1A0#0053000000FE009A
(0000000001.187264) vcan0 1AC#F905000069050090
(0000000001.187264) vcan0 2A0#0000002C0000A08C
(0000000001.187264) vcan0 5A0#2B010057000050AB
(0000000001.187264) vcan0 540#B400FF00FF001026
(0000000001.201756) vcan0 280#0100000000000C00
(0000000001.201756) vcan0 288#366E200400687C60
(0000000001.201756) vcan0 480#1C2C000018000028
(0000000001.201756) vcan0 48A#0000000000000000
(0000000001.201756) vcan0 320#22020001000B00AE
(0000000001.201756) vcan0 56A#2100000000000021
(0000000001.201756) vcan0 555#1800690029000000
(0000000001.201756) vcan0 1A0#0053000000FE009B
(0000000001.201756) vcan0 2A0#0000002C0000B09C
(0000000001.201756) vcan0 050#0005383D
(0000000001.201756) vcan0 540#C400FF00FF00100F
(0000000001.201756) vcan0 280#0100000000000C00
(0000000001.201756) vcan0 58C#80C02E0027000000
(0000000001.201756) vcan0 5C0#469180A6250009DD
(0000000001.201756) vcan0 720#04010100040003
(0000000001.201756) vcan0 470#8001000010
(0000000001.201756) vcan0 3D0#008108000065
(0000000001.201756) vcan0 531#0020C0E0
(0000000001.217353) vcan0 1A0#0053000000FE009C
(0000000001.217353) vcan0 1AC#FA06000069050090
(0000000001.217353) vcan0 2A0#0000002C0000C0EC
(0000000001.217353) vcan0 5A0#2B010067000050AB
(0000000001.217353) vcan0 657#7710C03F1F083040
(0000000001.217353) vcan0 540#D400FF00FF00100F
(0000000001.217353) vcan0 280#0100000000000C00
(0000000001.217353) vcan0 288#366E200400687C60
(0000000001.217353) vcan0 480#1C2C000018000028
(0000000001.217353) vcan0 48A#1000000000000010
(0000000001.217353) vcan0 555#1800690029000000
(0000000001.217353) vcan0 320#22020001000C00BE
(0000000001.217353) vcan0 62F#01010101
(0000000001.217353) vcan0 727#04010100040000
(0000000001.217353) vcan0 6C8#1342
(0000000001.217353) vcan0 1A0#0053000000FE009D
(0000000001.217353) vcan0 2A0#0000002C0000D0FC
(0000000001.217353) vcan0 050#0005484D
(0000000001.217353) vcan0 35F#BA80000000200000
(0000000001.217353) vcan0 373#020018829022
(0000000001.217353) vcan0 540#E400FF00FF00100F
(0000000001.217353) vcan0 544#000000000000005A
(0000000001.231582) vcan0 280#0100000000000C00
(0000000001.231582) vcan0 5C0#479180A6250009DC
(0000000001.231582) vcan0 3D0#008108000065
(0000000001.231582) vcan0 621#205828000064B0
(0000000001.231582) vcan0 1A0#0053000000FE009E
(0000000001.231582) vcan0 1AC#FB07000069050090
(0000000001.231582) vcan0 2A0#0000002C0000E0CC
(0000000001.231582) vcan0 5A0#2B010077000050AB
(0000000001.231582) vcan0 3E1#2000270000008400
(0000000001.231582) vcan0 540#F400FF00FF00100F
(0000000001.231582) vcan0 010#A4F8B513C4BA80
(0000000001.231582) vcan0 280#0100000000000C00
(0000000001.231582) vcan0 2C3#07
(0000000001.231582) vcan0 288#4E6E200400687C60
(0000000001.231582) vcan0 480#512C000018000065
(0000000001.231582) vcan0 48A#2000000000000020
(0000000001.231582) vcan0 56A#3100000000000031
(0000000001.231582) vcan0 320#22020001000D00BE
(0000000001.251924) vcan0 555#1800690029000000
(0000000001.251924) vcan0 1A0#0053000000FE009F
(0000000001.251924) vcan0 2A0#0000002C0000F0DC
(0000000001.251924) vcan0 050#0005585D
(0000000001.251924) vcan0 5C1#00000060
(0000000001.251924) vcan0 540#0400FF00FF001026
(0000000001.251924) vcan0 280#0100000000000C00
(0000000001.251924) vcan0 5C0#489180A6250009D3
(0000000001.251924) vcan0 3D0#008108000065
(0000000001.251924) vcan0 5D0#C00469AF3655C100
(0000000001.251924) vcan0 420#8AA5A5000064FF00
(0000000001.251924) vcan0 1A0#0053000000FE0090
(0000000001.251924) vcan0 1AC#F408000069050090
(0000000001.251924) vcan0 2A0#0000002C0000002C
(0000000001.251924) vcan0 5A0#2B010087000050AB
(0000000001.251924) vcan0 540#1400FF00FF001026
(0000000001.251924) vcan0 280#0100000000000C00
(0000000001.251924) vcan0 288#4E6E200400687C60
(0000000001.251924) vcan0 480#512C000018000065
(0000000001.251924) vcan0 48A#3000000000000030
(0000000001.251924) vcan0 555#1800690029000000
(0000000001.251924) vcan0 470#8001000010
(0000000001.251924) vcan0 320#22020001000E00BE
(0000000001.263542) vcan0 531#0020D0F0
(0000000001.263542) vcan0 1A0#0053000000FE0011
(0000000001.263542) vcan0 2A0#0000002C0000103C
(0000000001.263542) vcan0 050#0025684D
(0000000001.263542) vcan0 657#7710C03F1F083040
(0000000001.263542) vcan0 393#FB00000000000000
(0000000001.263542) vcan0 540#2400FF00FF001026
(0000000001.263542) vcan0 280#0100000000000C00
(0000000001.263542) vcan0 5C0#499180A6250009D2
(0000000001.263542) vcan0 3D0#008108000065
(0000000001.263542) vcan0 6C8#1382
(0000000001.263542) vcan0 1A0#0053000000FE0012
(0000000001.263542) vcan0 1AC#F509000069050090
(0000000001.263542) vcan0 2A0#0000002C0000200C
(0000000001.281135) vcan0 5A0#2B010097000050AB
(0000000001.281135) vcan0 540#3400FF00FF001026
(0000000001.281135) vcan0 280#0100000000000C00
(0000000001.281135) vcan0 288#4E6E200400687C60
(0000000001.281135) vcan0 480#512C000018000065
(0000000001.281135) vcan0 48A#4000000000000040
(0000000001.281135) vcan0 56A#4100000000000041
(0000000001.281135) vcan0 320#22020001000F00BE
(0000000001.281135) vcan0 555#1800690029000000
(0000000001.281135) vcan0 1A0#0043000000FE0013
(0000000001.281135) vcan0 2A0#0000002C0000301C
(0000000001.281135) vcan0 050#0025785D
(0000000001.281135) vcan0 343#00A000
(0000000001.281135) vcan0 651#C00469AF3655C100
(0000000001.281135) vcan0 540#4400FF00FF00100F
(0000000001.281135) vcan0 5C0#4A9180A6250009D1
(0000000001.281135) vcan0 280#0100000000000C00
(0000000001.281135) vcan0 3D0#008108000065
(0000000001.296204) vcan0 658#7000010A5F850000
(0000000001.296204) vcan0 1A0#0043000000FE0014
(0000000001.296204) vcan0 1AC#F60A000069050090
(0000000001.296204) vcan0 2A0#0000002C0000406C
(0000000001.296204) vcan0 5A0#2B0100A7000050AB
(0000000001.296204) vcan0 540#5400FF00FF00100F
(0000000001.296204) vcan0 280#0100000000000C00
(0000000001.296204) vcan0 288#4E6E200400687C60
(0000000001.296204) vcan0 480#512C000018000065
(0000000001.296204) vcan0 48A#5000000000000050
(0000000001.296204) vcan0 320#22020001000000BE
(0000000001.296204) vcan0 555#1800690029000000
(0000000001.296204) vcan0 1A0#0043000000FE0015
(0000000001.296204) vcan0 2A0#0000002C0000507C
(0000000001.296204) vcan0 050#002588AD
(0000000001.310742) vcan0 540#6400FF00FF00100F
(0000000001.310742) vcan0 280#0100000000000C00
(0000000001.310742) vcan0 58C#80C02E0027000000
(0000000001.310742) vcan0 5C0#4B9180A6250009D0
(0000000001.310742) vcan0 720#04010100040003
(0000000001.310742) vcan0 3D0#008108000065
(0000000001.310742) vcan0 470#8001000010
(0000000001.310742) vcan0 531#0020E0C0
(0000000001.310742) vcan0 1A0#0043000000FE0016
(0000000001.310742) vcan0 1AC#F70B000069050090
(0000000001.310742) vcan0 2A0#0000002C0000604C
(0000000001.310742) vcan0 5A0#2B0100B7000050AB
(0000000001.310742) vcan0 657#7710C03F1F083040
(0000000001.310742) vcan0 540#7400FF00FF00100F
(0000000001.310742) vcan0 280#0100000000000C00
(0000000001.310742) vcan0 288#8B6E200400687C60
(0000000001.310742) vcan0 480#842C0000180000B0
(0000000001.326825) vcan0 48A#6000000000000060
(0000000001.326825) vcan0 56A#5100000000000051
(0000000001.326825) vcan0 555#1800690029000000
(0000000001.326825) vcan0 320#22020001000100BE
(0000000001.326825) vcan0 1A0#0043000000FE0017
(0000000001.326825) vcan0 2A0#0000002C0000705C
(0000000001.326825) vcan0 050#002598BD
(0000000001.326825) vcan0 35F#BA80000000200000
(0000000001.326825) vcan0 373#020018829022
(0000000001.326825) vcan0 540#8400FF00FF001026
(0000000001.326825) vcan0 544#000000000000005A
(0000000001.326825) vcan0 5C0#4C9180A6250009D7
(0000000001.326825) vcan0 280#0100000000000C00
(0000000001.326825) vcan0 3D0#008108000065
(0000000001.326825) vcan0 621#205828000064B0
(0000000001.326825) vcan0 1A0#0043000000FE0018
(0000000001.326825) vcan0 1AC#F00C000069050090
(0000000001.326825) vcan0 2A0#0000002C000080AC
(0000000001.326825) vcan0 5A0#2B0100C7000050AB
(0000000001.326825) vcan0 3E1#2000270000008400
(0000000001.326825) vcan0 540#9400FF00FF001026
(0000000001.343410) vcan0 280#0100000000000B00
(0000000001.343410) vcan0 2C3#07
(0000000001.343410) vcan0 288#8B6E200400687B60
(0000000001.343410) vcan0 480#842C0000180000B0
(0000000001.343410) vcan0 48A#7000000000000070
(0000000001.343410) vcan0 555#1800690029000000
(0000000001.343410) vcan0 320#22020001000200BE
(0000000001.343410) vcan0 1A0#0043000000FE0019
(0000000001.343410) vcan0 2A0#0000002C000090BC
(0000000001.343410) vcan0 5C1#00000060
(0000000001.343410) vcan0 050#0025A88D
(0000000001.343410) vcan0 540#A400FF00FF001026
(0000000001.343410) vcan0 280#0100000000000B00
(0000000001.343410) vcan0 5C0#4D9180A6250009D6
(0000000001.343410) vcan0 3D0#008108000065
(0000000001.343410) vcan0 5D0#C00469AF3655C100
(0000000001.343410) vcan0 520#57C400582855A701
(0000000001.343410) vcan0 1A0#0043000000FE001A
(0000000001.360519) vcan0 1AC#F10D000069050090
(0000000001.360519) vcan0 2A0#0000002C0000A08C
(0000000001.360519) vcan0 5A0#2B0100D7000050AB
(0000000001.360519) vcan0 540#B400FF00FF001026
(0000000001.360519) vcan0 280#0100000000000B00
(0000000001.360519) vcan0 288#8B6E200400687C60
(0000000001.360519) vcan0 480#842C0000180000B0
(0000000001.360519) vcan0 470#8001000010
(0000000001.360519) vcan0 48A#8000000000000080
(0000000001.360519) vcan0 320#22020001000300BE
(0000000001.360519) vcan0 56A#6100000000000061
(0000000001.360519) vcan0 555#1800690029000000
(0000000001.360519) vcan0 531#0020F0D0
(0000000001.360519) vcan0 1A0#0043000000FE001B
(0000000001.360519) vcan0 2A0#0000002C0000B09C
(0000000001.360519) vcan0 575#C7220080
(0000000001.360519) vcan0 635#0000FE
(0000000001.360519) vcan0 050#0025B89D
(0000000001.360519) vcan0 657#7710C03F1F083040
(0000000001.360519) vcan0 550#0000000000000000
(0000000001.360519) vcan0 540#C400FF00FF00100F
(0000000001.360519) vcan0 5C0#4E9180A6250009D5
(0000000001.360519) vcan0 280#0100000000000B00
(0000000001.360519) vcan0 3D0#008108000065
(0000000001.377292) vcan0 58F#00F0FF7F000000A2
(0000000001.377292) vcan0 1A0#0043000000FE001C
(0000000001.377292) vcan0 1AC#F20E000069050090
(0000000001.377292) vcan0 2A0#0000002C0000C0EC
(0000000001.377292) vcan0 5A0#2B0100E7000050AB
(0000000001.377292) vcan0 540#D400FF00FF00100F
(0000000001.377292) vcan0 280#0100000000000B00
(0000000001.377292) vcan0 288#8B6E200400687C60
(0000000001.377292) vcan0 480#842C0000180000B0
(0000000001.377292) vcan0 48A#9000000000000090
(0000000001.377292) vcan0 555#1800690029000000
(0000000001.377292) vcan0 320#22020001000400BE
(0000000001.377292) vcan0 1A0#0043000000FE001D
(0000000001.377292) vcan0 2A0#0000002C0000D0FC
(0000000001.377292) vcan0 050#0025C8ED
(0000000001.377292) vcan0 343#00A000
(0000000001.377292) vcan0 651#C00469AF3655C100
(0000000001.377292) vcan0 540#E400FF00FF00100F
(0000000001.391038) vcan0 280#0100000000000B00
(0000000001.391038) vcan0 5C0#4F9180A6250009D4
(0000000001.391038) vcan0 3D0#008108000065
(0000000001.391038) vcan0 658#7000010A5F850000
(0000000001.391038) vcan0 1A0#0043000000FE001E
(0000000001.391038) vcan0 1AC#F30F000069050090
(0000000001.391038) vcan0 2A0#0000002C0000E0CC
(0000000001.391038) vcan0 5A0#2B0100F7000050AB
(0000000001.391038) vcan0 540#F400FF00FF00100F
(0000000001.391038) vcan0 280#0100000000000B00
(0000000001.391038) vcan0 288#E86E200400687C60
(0000000001.406359) vcan0 480#C22C0000180000F6
(0000000001.406359) vcan0 48A#A0000000000000A0
(0000000001.406359) vcan0 56A#7100000000000071
(0000000001.406359) vcan0 320#22020001000500BE
(0000000001.406359) vcan0 555#1800690029000000
(0000000001.406359) vcan0 1A0#0043000000FE001F
(0000000001.406359) vcan0 2A0#0000002C0000F0DC
(0000000001.406359) vcan0 050#0025D8FD
(0000000001.406359) vcan0 540#0400FF00FF001026
(0000000001.406359) vcan0 5C0#409180A6250009DB
(0000000001.406359) vcan0 280#0100000000000B00
(0000000001.406359) vcan0 58C#80C02E0027000000
(0000000001.406359) vcan0 720#04010100000003
(0000000001.406359) vcan0 3D0#008108000065
(0000000001.406359) vcan0 470#8001000010
(0000000001.406359) vcan0 531#00200020
(0000000001.406359) vcan0 1A0#0043000000FE0010
(0000000001.406359) vcan0 1AC#FC00000069050090
(0000000001.406359) vcan0 2A0#0000002C0000002C
(0000000001.406359) vcan0 5A0#2B010007000050AB
(0000000001.406359) vcan0 657#7710C03F1F083040
(0000000001.421713) vcan0 540#1400FF00FF001026
(0000000001.421713) vcan0 280#0100000000000B00
(0000000001.421713) vcan0 288#E86E200400687C60
(0000000001.421713) vcan0 480#C22C0000180000F6
(0000000001.421713) vcan0 48A#B0000000000000B0
(0000000001.421713) vcan0 555#1800690029000000
(0000000001.421713) vcan0 320#22020001000600BE
(0000000001.421713) vcan0 62F#01010101
(0000000001.421713) vcan0 727#04010100040000
(0000000001.421713) vcan0 1A0#0043000000FE0011
(0000000001.421713) vcan0 2A0#0000002C0000103C
(0000000001.421713) vcan0 050#0025E8CD
(0000000001.421713) vcan0 35F#BA80000000200000
(0000000001.421713) vcan0 373#020018829022
(0000000001.421713) vcan0 540#2400FF00FF001026
(0000000001.421713) vcan0 544#000000000000005A
(0000000001.421713) vcan0 280#0100000000000B00
(0000000001.421713) vcan0 5C0#419180A6250009DA
(0000000001.421713) vcan0 3D0#008108000065
(0000000001.421713) vcan0 621#205828000064B0
(0000000001.437961) vcan0 1A0#0043000000FE0012
(0000000001.437961) vcan0 1AC#FD01000069050090
(0000000001.437961) vcan0 2A0#0000002C0000200C
(0000000001.437961) vcan0 5A0#2B010017000050AB
(0000000001.437961) vcan0 3E1#2000270000008400
(0000000001.437961) vcan0 540#3400FF00FF001026
(0000000001.437961) vcan0 280#0100000000000B00
(0000000001.437961) vcan0 2C3#07
(0000000001.437961) vcan0 56A#8100000000000081
(0000000001.437961) vcan0 288#E86E200400687C60
(0000000001.437961) vcan0 480#C22C0000180000F6
(0000000001.437961) vcan0 48A#C0000000000000C0
(0000000001.437961) vcan0 320#22020001000700BE
(0000000001.437961) vcan0 555#1800690029000000
(0000000001.437961) vcan0 1A0#0043000000FE0013
(0000000001.437961) vcan0 2A0#0000002C0000301C
(0000000001.437961) vcan0 5C1#00000060
(0000000001.437961) vcan0 050#0025F8DD
(0000000001.437961) vcan0 540#4400FF00FF00100F
(0000000001.437961) vcan0 5C0#429180A6250009D9
(0000000001.453182) vcan0 280#0100000000000B00
(0000000001.453182) vcan0 3D0#008108000065
(0000000001.453182) vcan0 5D0#C00469AF3655C100
(0000000001.453182) vcan0 420#8AA5A5000064FF00
(0000000001.453182) vcan0 1A0#0043000000FE0014
(0000000001.453182) vcan0 1AC#FE02000069050090
(0000000001.453182) vcan0 2A0#0000002C0000406C
(0000000001.453182) vcan0 5A0#2B010027000050AB
(0000000001.453182) vcan0 540#5400FF00FF00100F
(0000000001.453182) vcan0 280#0100000000000B00
(0000000001.453182) vcan0 288#E86E200400687C60
(0000000001.453182) vcan0 480#C22C0000180000F6
(0000000001.453182) vcan0 48A#D0000000000000D0
(0000000001.453182) vcan0 555#1800690029000000
(0000000001.453182) vcan0 470#8001000010
(0000000001.453182) vcan0 320#22020001000800BE
(0000000001.453182) vcan0 531#00201030
(0000000001.453182) vcan0 1A0#0043000000FE0015
(0000000001.471232) vcan0 2A0#0000002C0000507C
(0000000001.471232) vcan0 050#0025082D
(0000000001.471232) vcan0 657#7710C03F1F083040
(0000000001.471232) vcan0 393#FB00000000000000
(0000000001.471232) vcan0 540#6400FF00FF00100F
(0000000001.471232) vcan0 280#0100000000000B00
(0000000001.471232) vcan0 5C0#439180A6250009D8
(0000000001.471232) vcan0 3D0#008108000065
(0000000001.471232) vcan0 1A0#0043000000FE0016
(0000000001.471232) vcan0 1AC#FF03000069050090
(0000000001.471232) vcan0 2A0#0000002C0000604C
(0000000001.471232) vcan0 5A0#2B010037000050AB
(0000000001.471232) vcan0 540#7400FF00FF00100F
(0000000001.471232) vcan0 280#0100000000000B00
(0000000001.471232) vcan0 56A#9100000000000091
(0000000001.471232) vcan0 288#366E200400687C60
(0000000001.485030) vcan0 480#1C2C000018000028
(0000000001.485030) vcan0 48A#E0000000000000E0
(0000000001.485030) vcan0 320#22020001000900BE
(0000000001.485030) vcan0 555#1800690029000000
(0000000001.485030) vcan0 1A0#0043000000FE0017
(0000000001.485030) vcan0 2A0#0000002C0000705C
(0000000001.485030) vcan0 050#0025183D
(0000000001.485030) vcan0 343#00A000
(0000000001.485030) vcan0 651#C00469AF3655C100
(0000000001.485030) vcan0 540#8400FF00FF001026
(0000000001.485030) vcan0 5C0#449180A6250009DF
(0000000001.485030) vcan0 280#0100000000000B00
(0000000001.485030) vcan0 3D0#008108000065
(0000000001.485030) vcan0 658#7000010A5F820000
(0000000001.485030) vcan0 1A0#0043000000FE0018
(0000000001.485030) vcan0 1AC#F804000069050090
(0000000001.485030) vcan0 2A0#0000002C000080AC
(0000000001.485030) vcan0 5A0#2B010047000050AB
(0000000001.487046) vcan0 540#9400FF00FF001026
(0000000001.498953) vcan0 280#0100000000000B00
(0000000001.498953) vcan0 288#366E200400687C60
(0000000001.498953) vcan0 480#1C2C000018000028
(0000000001.498953) vcan0 48A#F0000000000000F0
(0000000001.498953) vcan0 555#1800690029000000
(0000000001.498953) vcan0 320#22020001000A00BE
(0000000001.498953) vcan0 1A0#0043000000FE0019
(0000000001.498953) vcan0 2A0#0000002C000090BC
(0000000001.498953) vcan0 050#0025280D
(0000000001.498953) vcan0 540#A400FF00FF001026
(0000000001.498953) vcan0 280#0100000000000B00
(0000000001.498953) vcan0 58C#80C02E0027000000
(0000000001.498953) vcan0 5C0#459180A6250009DE
(0000000001.498953) vcan0 720#04010100000003
(0000000001.514957) vcan0 470#8001000010
(0000000001.514957) vcan0 3D0#008108000065
(0000000001.514957) vcan0 531#00202000
(0000000001.514957) vcan0 1A0#0043000000FE001A
(0000000001.514957) vcan0 1AC#F905000069050090
(0000000001.514957) vcan0 2A0#0000002C0000A08C
(0000000001.514957) vcan0 5A0#2B010057000050AB
(0000000001.514957) vcan0 657#7710C03F1F083040
(0000000001.514957) vcan0 540#B400FF00FF001026
(0000000001.514957) vcan0 280#0100000000000B00
(0000000001.514957) vcan0 56A#A1000000000000A1
(0000000001.514957) vcan0 288#366E200400687C60
(0000000001.514957) vcan0 480#1C2C000018000028
(0000000001.514957) vcan0 48A#0000000000000000
(0000000001.514957) vcan0 555#1800690029000000
(0000000001.514957) vcan0 320#22020001000B00BE
(0000000001.514957) vcan0 5F3#0000000000000000
(0000000001.514957) vcan0 1A0#0043000000FE001B
(0000000001.514957) vcan0 2A0#0000002C0000B09C
(0000000001.514957) vcan0 6C8#11C2
(0000000001.514957) vcan0 050#0025381D
(0000000001.531010) vcan0 35F#BA80000000200000
(0000000001.531010) vcan0 373#020018829022
(0000000001.531010) vcan0 540#C400FF00FF00100F
(0000000001.531010) vcan0 544#000000000000005A
(0000000001.531010) vcan0 5C0#469180A6250009DD
(0000000001.531010) vcan0 280#0100000000000B00
(0000000001.531010) vcan0 3D0#008108000065
(0000000001.531010) vcan0 557#6710400F1E002040
(0000000001.531010) vcan0 621#205828000064B0
(0000000001.531010) vcan0 1A0#0043000000FE001C
(0000000001.531010) vcan0 1AC#FA06000069050090
(0000000001.531010) vcan0 2A0#0000002C0000C0EC
(0000000001.531010) vcan0 5A0#2B010067000050AB
(0000000001.531010) vcan0 3E1#2000270000008400
(0000000001.531010) vcan0 540#D400FF00FF00100F
(0000000001.531010) vcan0 2C3#07
(0000000001.531010) vcan0 280#0100000000000A00
(0000000001.531010) vcan0 288#366E200400687B60
(0000000001.531010) vcan0 480#1C2C000018000028
(0000000001.531010) vcan0 48A#1000000000000010
(0000000001.548054) vcan0 555#1800690029000000
(0000000001.548054) vcan0 320#22020001000C00BE
(0000000001.548054) vcan0 1A0#0043000000FE001D
(0000000001.548054) vcan0 2A0#0000002C0000D0FC
(0000000001.548054) vcan0 050#0025486D
(0000000001.548054) vcan0 540#E400FF00FF00100F
(0000000001.548054) vcan0 280#0100000000000A00
(0000000001.548054) vcan0 5C0#479180A6250009DC
(0000000001.548054) vcan0 3D0#008108000065
(0000000001.548054) vcan0 5D0#C00469AF3655C100
(0000000001.548054) vcan0 520#050300582855A701
(0000000001.548054) vcan0 1A0#0043000000FE001E
(0000000001.548054) vcan0 1AC#FB07000069050090
(0000000001.548054) vcan0 2A0#0000002C0000E0CC
(0000000001.548054) vcan0 5A0#2B010077000050AB
(0000000001.548054) vcan0 540#F400FF00FF00100F
(0000000001.548054) vcan0 280#0100000000000A00
(0000000001.551309) vcan0 288#4E6E200400687C60
(0000000001.551309) vcan0 480#512C000018000065
(0000000001.551309) vcan0 470#8001000010
(0000000001.551309) vcan0 48A#2000000000000020
(0000000001.563844) vcan0 56A#B1000000000000B1
(0000000001.563844) vcan0 320#22020001000D00BE
(0000000001.563844) vcan0 555#1800690029000000
(0000000001.563844) vcan0 531#00203010
(0000000001.563844) vcan0 1A0#0043000000FE001F
(0000000001.563844) vcan0 2A0#0000002C0000F0DC
(0000000001.563844) vcan0 575#C7220080
(0000000001.563844) vcan0 635#0000FE
(0000000001.563844) vcan0 050#0025587D
(0000000001.563844) vcan0 550#4000400000000000
(0000000001.563844) vcan0 657#7710C03F1F083040
(0000000001.563844) vcan0 540#0400FF00FF001026
(0000000001.563844) vcan0 5C0#489180A6250009D3
(0000000001.563844) vcan0 280#0100000000000A00
(0000000001.563844) vcan0 3D0#008108000065
(0000000001.563844) vcan0 1A0#0043000000FE0010
(0000000001.563844) vcan0 6C8#1202
(0000000001.563844) vcan0 1AC#F408000069050090
(0000000001.563844) vcan0 67C#1AC2
(0000000001.563844) vcan0 2A0#0000002C0000002C
(0000000001.580969) vcan0 5A0#2B010087000050AB
(0000000001.580969) vcan0 540#1400FF00FF001026
(0000000001.580969) vcan0 280#0100000000000A00
(0000000001.580969) vcan0 288#4E6E200400687C60
(0000000001.580969) vcan0 480#512C000018000065
(0000000001.580969) vcan0 48A#3000000000000030
(0000000001.580969) vcan0 555#1800690029000000
(0000000001.580969) vcan0 320#22020001000E00BE
(0000000001.580969) vcan0 1A0#0043000000FE0011
(0000000001.580969) vcan0 2A0#0000002C0000103C
(0000000001.580969) vcan0 050#0025684D
(0000000001.580969) vcan0 343#00A000
(0000000001.580969) vcan0 651#C00469AF3655C100
(0000000001.580969) vcan0 540#2400FF00FF001026
(0000000001.580969) vcan0 5C0#499180A6250009D2
(0000000001.580969) vcan0 280#0100000000000A00
(0000000001.580969) vcan0 3D0#008108000065
(0000000001.595856) vcan0 658#7000010A5F820000
(0000000001.595856) vcan0 1A0#0043000000FE0012
(0000000001.595856) vcan0 1AC#F509000069050090
(0000000001.595856) vcan0 2A0#0000002C0000200C
(0000000001.595856) vcan0 5A0#2B010097000050AB
(0000000001.595856) vcan0 540#3400FF00FF001026
(0000000001.595856) vcan0 280#0100000000000A00
(0000000001.595856) vcan0 56A#C1000000000000C1
(0000000001.595856) vcan0 288#4E6E200400687C60
(0000000001.595856) vcan0 480#512C000018000065
(0000000001.595856) vcan0 320#22020001000F00BE
(0000000001.595856) vcan0 48A#4000000000000040
(0000000001.595856) vcan0 555#1800690029000000
(0000000001.595856) vcan0 1A0#0043000000FE0013
(0000000001.595856) vcan0 2A0#0000002C0000301C
(0000000001.595856) vcan0 050#0025785D
(0000000001.611719) vcan0 540#4400FF00FF00100F
(0000000001.611719) vcan0 5C0#4A9180A6250009D1
(0000000001.611719) vcan0 280#0100000000000A00
(0000000001.611719) vcan0 58C#80C02E0027000000
(0000000001.611719) vcan0 720#04010100000003
(0000000001.611719) vcan0 3D0#008108000065
(0000000001.611719) vcan0 470#8001000010
(0000000001.611719) vcan0 531#00204060
(0000000001.611719) vcan0 1A0#0043000000FE0014
(0000000001.611719) vcan0 1AC#F60A000069050090
(0000000001.611719) vcan0 2A0#0000002C0000406C
(0000000001.611719) vcan0 5A0#2B0100A7000050AB
(0000000001.611719) vcan0 657#7710C03F1F083040
(0000000001.611719) vcan0 540#5400FF00FF00100F
(0000000001.611719) vcan0 280#0100000000000A00
(0000000001.611719) vcan0 288#4E6E200400687C60
(0000000001.611719) vcan0 480#512C000018000065
(0000000001.611719) vcan0 48A#5000000000000050
(0000000001.611719) vcan0 555#1800690029000000
(0000000001.627057) vcan0 320#22020001000000BE
(0000000001.627057) vcan0 62F#01010101
(0000000001.627057) vcan0 727#04010100040000
(0000000001.627057) vcan0 1A0#0043000000FE0015
(0000000001.627057) vcan0 6C8#1242
(0000000001.627057) vcan0 2A0#0000002C0000507C
(0000000001.627057) vcan0 67C#1C42
(0000000001.627057) vcan0 050#002588AD
(0000000001.627057) vcan0 35F#BA80000000200000
(0000000001.627057) vcan0 373#020018829022
(0000000001.627057) vcan0 540#6400FF00FF00100F
(0000000001.627057) vcan0 544#000000000000005A
(0000000001.627057) vcan0 5C0#4B9180A6250009D0
(0000000001.627057) vcan0 280#0100000000000A00
(0000000001.627057) vcan0 3D0#008108000065
(0000000001.627057) vcan0 655#7718403F1F0830C0
(0000000001.627057) vcan0 621#205828000064B0
(0000000001.627057) vcan0 1A0#0043000000FE0016
(0000000001.627057) vcan0 1AC#D10B000069012092
(0000000001.627057) vcan0 2A0#0000002C0000604C
(0000000001.627057) vcan0 5A0#2B0100B7000050AB
(0000000001.627057) vcan0 3E1#2000270000008400
(0000000001.627057) vcan0 540#7400FF00FF00100F
(0000000001.642165) vcan0 280#0100000000000A00
(0000000001.642165) vcan0 2C3#07
(0000000001.642165) vcan0 288#8B6E200400687C60
(0000000001.642165) vcan0 480#842C0000180000B0
(0000000001.642165) vcan0 48A#6000000000000060
(0000000001.642165) vcan0 56A#D1000000000000D1
(0000000001.642165) vcan0 555#1800690029000000
(0000000001.642165) vcan0 320#22020001000100BE
(0000000001.642165) vcan0 1A0#0043000000FE0017
(0000000001.642165) vcan0 2A0#0000002C0000705C
(0000000001.642165) vcan0 050#002598BD
(0000000001.642165) vcan0 540#8400FF00FF001026
(0000000001.642165) vcan0 5C0#4C9180A6250009D7
(0000000001.642165) vcan0 280#0100000000000A00
(0000000001.642165) vcan0 3D0#008108000065
(0000000001.642165) vcan0 5D0#C00469AF3655C100
(0000000001.642165) vcan0 420#8AA5A5000064FF00
(0000000001.658027) vcan0 1A0#0043000000FE0018
(0000000001.658027) vcan0 1AC#D60C000069012092
(0000000001.658027) vcan0 2A0#0000002C000080AC
(0000000001.658027) vcan0 5A0#2B0100C7000050AB
(0000000001.658027) vcan0 3E3#FFFFFF0000FE00FF
(0000000001.658027) vcan0 540#9400FF00FF001026
(0000000001.658027) vcan0 280#0100000000000A00
(0000000001.658027) vcan0 288#8B6E200400687C60
(0000000001.658027) vcan0 480#842C0000180000B0
(0000000001.658027) vcan0 470#8001000010
(0000000001.658027) vcan0 48A#7000000000000070
(0000000001.658027) vcan0 555#1800690029000000
(0000000001.658027) vcan0 531#00205070
(0000000001.658027) vcan0 320#22020001000200BE
(0000000001.658027) vcan0 1A0#0043000000FE0019
(0000000001.658027) vcan0 2A0#0000002C000090BC
(0000000001.658027) vcan0 050#0025A88D
(0000000001.658027) vcan0 657#7710C03F1F083040
(0000000001.658027) vcan0 393#FB00000000000000
(0000000001.658027) vcan0 540#A400FF00FF001026
(0000000001.658027) vcan0 5C0#4D9180A6250009D6
(0000000001.673046) vcan0 280#0100000000000A00
(0000000001.673046) vcan0 3D0#008108000065
(0000000001.673046) vcan0 1A0#0043000000FE001A
(0000000001.673046) vcan0 6C8#1302
(0000000001.673046) vcan0 1AC#D70D000069012092
(0000000001.673046) vcan0 2A0#0000002C0000A08C
(0000000001.673046) vcan0 5A0#2B0100D7000050AB
(0000000001.673046) vcan0 540#B400FF00FF001026
(0000000001.673046) vcan0 280#0100000000000A00
(0000000001.673046) vcan0 288#8B6E200400687C60
(0000000001.673046) vcan0 480#842C0000180000B0
(0000000001.673046) vcan0 48A#8000000000000080
(0000000001.673046) vcan0 56A#E1000000000000E1
(0000000001.673046) vcan0 320#22020001000300BE
(0000000001.673046) vcan0 555#1800690029000000
(0000000001.673046) vcan0 1A0#0043000000FE001B
(0000000001.673046) vcan0 2A0#0000002C0000B09C
(0000000001.675559) vcan0 050#0025B89D
(0000000001.675559) vcan0 343#00A000
(0000000001.690090) vcan0 651#C00469AF3655C100
(0000000001.690090) vcan0 540#C400FF00FF00100F
(0000000001.690090) vcan0 5C0#4E9180A6250009D5
(0000000001.690090) vcan0 280#0100000000000A00
(0000000001.690090) vcan0 3D0#008108000065
(0000000001.690090) vcan0 658#7000010A5F820000
(0000000001.690090) vcan0 1A0#0043000000FE001C
(0000000001.690090) vcan0 1AC#D40E000069012092
(0000000001.690090) vcan0 2A0#0000002C0000C0EC
(0000000001.690090) vcan0 5A0#2B0100E7000050AB
(0000000001.690090) vcan0 540#D400FF00FF00100F
(0000000001.690090) vcan0 280#0100000000000A00
(0000000001.690090) vcan0 288#8B6E200400687C60
(0000000001.706692) vcan0 480#842C0000180000B0
(0000000001.706692) vcan0 48A#9000000000000090
(0000000001.706692) vcan0 555#1800690029000000
(0000000001.706692) vcan0 320#22020001000400BE
(0000000001.706692) vcan0 1A0#0043000000FE001D
(0000000001.706692) vcan0 2A0#0000002C0000D0FC
(0000000001.706692) vcan0 050#0025C8ED
(0000000001.706692) vcan0 540#E400FF00FF00100F
(0000000001.706692) vcan0 5C0#4F9180A6250009D4
(0000000001.706692) vcan0 280#0100000000000A00
(0000000001.706692) vcan0 58C#80C02E0027000000
(0000000001.706692) vcan0 720#04010100000003
(0000000001.706692) vcan0 3D0#008108000065
(0000000001.706692) vcan0 470#8001000010
(0000000001.706692) vcan0 531#00206040
(0000000001.706692) vcan0 1A0#0043000000FE001E
(0000000001.706692) vcan0 1AC#D50F000069012092
(0000000001.706692) vcan0 2A0#0000002C0000E0CC
(0000000001.706692) vcan0 5A0#2B0100F7000050AB
(0000000001.706692) vcan0 657#7710C03F1F083040
(0000000001.722267) vcan0 540#F400FF00FF00100F
(0000000001.722267) vcan0 280#0100000000000A00
(0000000001.722267) vcan0 56A#F1000000000000F1
(0000000001.722267) vcan0 288#E86E200400687C60
(0000000001.722267) vcan0 480#C22C0000180000F6
(0000000001.722267) vcan0 48A#A0000000000000A0
(0000000001.722267) vcan0 555#1800690029000000
(0000000001.722267) vcan0 320#22020001000500BE
(0000000001.722267) vcan0 1A0#0043000000FE001F
(0000000001.722267) vcan0 6C8#1342
(0000000001.722267) vcan0 2A0#0000002C0000F0DC
(0000000001.722267) vcan0 050#0025D8FD
(0000000001.722267) vcan0 35F#BA80000000200000
(0000000001.722267) vcan0 373#020018829022
(0000000001.722267) vcan0 540#0400FF00FF001026
(0000000001.722267) vcan0 544#000000000000005A
(0000000001.722267) vcan0 5C0#409180A6250009DB
(0000000001.722267) vcan0 280#0100000000000A00
(0000000001.722267) vcan0 3D0#008108000065
(0000000001.722267) vcan0 621#205828000064B0
(0000000001.736889) vcan0 1A0#0043000000FE0010
(0000000001.736889) vcan0 1AC#DA00000069012092
(0000000001.736889) vcan0 2A0#0000002C0000002C
(0000000001.736889) vcan0 5A0#2B010007000050AB
(0000000001.736889) vcan0 3E1#2000270000008400
(0000000001.736889) vcan0 540#1400FF00FF001026
(0000000001.736889) vcan0 280#0100000000000A00
(0000000001.736889) vcan0 2C3#07
(0000000001.736889) vcan0 288#E86E200400687C60
(0000000001.736889) vcan0 480#C22C0000180000F6
(0000000001.736889) vcan0 48A#B0000000000000B0
(0000000001.736889) vcan0 555#1800690029000000
(0000000001.736889) vcan0 320#22020001000600BE
(0000000001.736889) vcan0 1A0#0043000000FE0011
(0000000001.736889) vcan0 2A0#0000002C0000103C
(0000000001.736889) vcan0 050#0025E8CD
(0000000001.736889) vcan0 540#2400FF00FF001026
(0000000001.752951) vcan0 5C0#419180A6250009DA
(0000000001.752951) vcan0 280#0100000000000A00
(0000000001.752951) vcan0 3D0#008108000065
(0000000001.752951) vcan0 5D0#C00469AF3655C100
(0000000001.752951) vcan0 520#644400582855A701
(0000000001.752951) vcan0 621#205828000064AF
(0000000001.752951) vcan0 1A0#0043000000FE0012
(0000000001.752951) vcan0 1AC#E401000069011F92
(0000000001.752951) vcan0 2A0#0000002C0000200C
(0000000001.752951) vcan0 5A0#2B010017000050AB
(0000000001.752951) vcan0 540#3400FF00FF001026
(0000000001.752951) vcan0 280#0100000000000A00
(0000000001.752951) vcan0 288#E86E200400687C60
(0000000001.752951) vcan0 470#8001000010
(0000000001.752951) vcan0 480#C22C0000180000F6
(0000000001.752951) vcan0 48A#C0000000000000C0
(0000000001.752951) vcan0 320#22020001000700BE
(0000000001.752951) vcan0 56A#0100000000000001
(0000000001.752951) vcan0 531#00207050
(0000000001.752951) vcan0 555#1800690029000000
(0000000001.752951) vcan0 1A0#0043000000FE0013
(0000000001.767235) vcan0 575#C7220080
(0000000001.767235) vcan0 2A0#0000002C0000301C
(0000000001.767235) vcan0 635#0000FE
(0000000001.767235) vcan0 050#0025F8DD
(0000000001.767235) vcan0 657#7710C03F1F083040
(0000000001.767235) vcan0 550#4000400000000000
(0000000001.767235) vcan0 540#4400FF00FF00100F
(0000000001.767235) vcan0 5C0#429180A6250009D9
(0000000001.767235) vcan0 280#0100000000000A00
(0000000001.767235) vcan0 3D0#008108000065
(0000000001.767235) vcan0 1A0#0043000000FE0014
(0000000001.767235) vcan0 6C8#1382
(0000000001.767235) vcan0 1AC#D802000069012092
(0000000001.767235) vcan0 2A0#0000002C0000406C
(0000000001.767235) vcan0 5A0#2B010027000050AB
(0000000001.767235) vcan0 540#5400FF00FF00100F
(0000000001.767235) vcan0 280#0100000000000A00
(0000000001.770764) vcan0 288#E86E200400687C60
(0000000001.770764) vcan0 480#C22C0000180000F6
(0000000001.770764) vcan0 48A#D0000000000000D0
(0000000001.784286) vcan0 555#1800690029000000
(0000000001.784286) vcan0 320#22020001000800BE
(0000000001.784286) vcan0 1A0#0043000000FE0015
(0000000001.784286) vcan0 2A0#0000002C0000507C
(0000000001.784286) vcan0 050#0025082D
(0000000001.784286) vcan0 343#00A000
(0000000001.784286) vcan0 651#C00469AF3655C100
(0000000001.784286) vcan0 540#6400FF00FF00100F
(0000000001.784286) vcan0 5C0#439180A6250009D8
(0000000001.784286) vcan0 280#0100000000000A00
(0000000001.784286) vcan0 3D0#008108000065
(0000000001.784286) vcan0 658#7000010A5F820000
(0000000001.784286) vcan0 1A0#0043000000FE0016
(0000000001.784286) vcan0 1AC#D903000069012092
(0000000001.784286) vcan0 2A0#0000002C0000604C
(0000000001.801330) vcan0 5A0#2B010037000050AB
(0000000001.801330) vcan0 540#7400FF00FF00100F
(0000000001.801330) vcan0 280#0100000000000A00
(0000000001.801330) vcan0 288#366E200400687C60
(0000000001.801330) vcan0 480#1C2C000018000028
(0000000001.801330) vcan0 48A#E0000000000000E0
(0000000001.801330) vcan0 56A#1100000000000011
(0000000001.801330) vcan0 320#22020001000900BE
(0000000001.801330) vcan0 555#1800690029000000
(0000000001.801330) vcan0 1A0#0043000000FE0017
(0000000001.801330) vcan0 2A0#0000002C0000705C
(0000000001.801330) vcan0 050#0025183D
(0000000001.801330) vcan0 540#8400FF00FF001026
(0000000001.801330) vcan0 5C0#449180A6250009DF
(0000000001.801330) vcan0 280#0100000000000A00
(0000000001.801330) vcan0 58C#80C02E0027000000
(0000000001.801330) vcan0 720#04010100000003
(0000000001.801330) vcan0 3D0#008108000065
(0000000001.801330) vcan0 470#8001000010
(0000000001.815324) vcan0 531#002080A0
(0000000001.815324) vcan0 1A0#0043000000FE0018
(0000000001.815324) vcan0 1AC#DE04000069012092
(0000000001.815324) vcan0 2A0#0000002C000080AC
(0000000001.815324) vcan0 5A0#2B010047000050AB
(0000000001.815324) vcan0 657#7710C03F1F083040
(0000000001.815324) vcan0 540#9400FF00FF001026
(0000000001.815324) vcan0 280#0100000000000A00
(0000000001.815324) vcan0 288#366E200400687C60
(0000000001.815324) vcan0 480#1C2C000018000028
(0000000001.815324) vcan0 48A#F0000000000000F0
(0000000001.815324) vcan0 555#1800690029000000
(0000000001.815324) vcan0 320#22020001000A00BE
(0000000001.815324) vcan0 62F#01010101
(0000000001.815324) vcan0 727#04010100040000
(0000000001.815324) vcan0 1A0#0043000000FE0019
(0000000001.815324) vcan0 2A0#0000002C000090BC
(0000000001.815324) vcan0 050#0025280D
(0000000001.831042) vcan0 35F#BA80000000200000
(0000000001.831042) vcan0 373#020018829022
(0000000001.831042) vcan0 540#A400FF00FF001026
(0000000001.831042) vcan0 544#000000000000005A
(0000000001.831042) vcan0 5C0#459180A6250009DE
(0000000001.831042) vcan0 280#0100000000000A00
(0000000001.831042) vcan0 3D0#008108000065
(0000000001.831042) vcan0 621#205828000064AF
(0000000001.831042) vcan0 1A0#0043000000FE001A
(0000000001.831042) vcan0 1AC#DF05000069012092
(0000000001.831042) vcan0 2A0#0000002C0000A08C
(0000000001.831042) vcan0 5A0#2B010057000050AB
(0000000001.831042) vcan0 3E1#2000270000008400
(0000000001.831042) vcan0 540#B400FF00FF001026
(0000000001.831042) vcan0 280#0100000000000A00
(0000000001.831042) vcan0 2C3#07
(0000000001.831042) vcan0 56A#2100000000000021
(0000000001.831042) vcan0 288#366E200400687C60
(0000000001.831042) vcan0 480#1C2C000018000028
(0000000001.831042) vcan0 48A#0000000000000000
(0000000001.831042) vcan0 320#22020001000B00BE
(0000000001.851116) vcan0 555#1800690029000000
(0000000001.851116) vcan0 1A0#0043000000FE001B
(0000000001.851116) vcan0 2A0#0000002C0000B09C
(0000000001.851116) vcan0 67D#3C82030032000300
(0000000001.851116) vcan0 050#0025381D
(0000000001.851116) vcan0 540#C400FF00FF00100F
(0000000001.851116) vcan0 5C0#469180A6250009DD
(0000000001.851116) vcan0 280#0100000000000A00
(0000000001.851116) vcan0 3D0#008108000065
(0000000001.851116) vcan0 5D0#C00469AF3655C100
(0000000001.851116) vcan0 420#8AA5A5000064FF00
(0000000001.851116) vcan0 1A0#0043000000FE001C
(0000000001.851116) vcan0 1AC#DC06000069012092
(0000000001.851116) vcan0 2A0#0000002C0000C0EC
(0000000001.851116) vcan0 5A0#2B010067000050AB
(0000000001.851116) vcan0 540#D400FF00FF00100F
(0000000001.851116) vcan0 280#0100000000000A00
(0000000001.851116) vcan0 288#366E200400687C60
(0000000001.851116) vcan0 480#1C2C000018000028
(0000000001.863191) vcan0 470#8001000010
(0000000001.863191) vcan0 48A#1000000000000010
(0000000001.863191) vcan0 555#1800690029000000
(0000000001.863191) vcan0 531#002090B0
(0000000001.863191) vcan0 320#22020001000C00BE
(0000000001.863191) vcan0 1A0#0043000000FE001D
(0000000001.863191) vcan0 2A0#0000002C0000D0FC
(0000000001.863191) vcan0 050#0025486D
(0000000001.863191) vcan0 657#7710C03F1F083040
(0000000001.863191) vcan0 393#FB00000000000000
(0000000001.863191) vcan0 540#E400FF00FF00100F
(0000000001.863191) vcan0 5C0#479180A6250009DC
(0000000001.863191) vcan0 280#0100000000000A00
(0000000001.863191) vcan0 3D0#008108000065
(0000000001.863191) vcan0 580#820000111C934814
(0000000001.863191) vcan0 58F#00F0FF7F0000000B
(0000000001.863191) vcan0 1A0#0043000000FE001E
(0000000001.880593) vcan0 1AC#DD07000069012092
(0000000001.880593) vcan0 2A0#0000002C0000E0CC
(0000000001.880593) vcan0 5A0#2B010077000050AB
(0000000001.880593) vcan0 540#F400FF00FF00100F
(0000000001.880593) vcan0 280#0100000000000A00
(0000000001.880593) vcan0 288#4E6E200400687C60
(0000000001.880593) vcan0 480#512C000018000065
(0000000001.880593) vcan0 48A#2000000000000020
(0000000001.880593) vcan0 56A#3100000000000031
(0000000001.880593) vcan0 320#22020001000D00BE
(0000000001.880593) vcan0 555#1800690029000000
(0000000001.880593) vcan0 1A0#0043000000FE001F
(0000000001.880593) vcan0 2A0#0000002C0000F0DC
(0000000001.880593) vcan0 050#0025587D
(0000000001.880593) vcan0 343#00A000
(0000000001.880593) vcan0 651#C00469AF3655C100
(0000000001.880593) vcan0 540#0400FF00FF001026
(0000000001.880593) vcan0 5C0#489180A6250009D3
(0000000001.880593) vcan0 280#0100000000000A00
(0000000001.880593) vcan0 3D0#008108000065
(0000000001.895678) vcan0 658#7000010A5F820000
(0000000001.895678) vcan0 1A0#0043000000FE0010
(0000000001.895678) vcan0 1AC#D208000069012092
(0000000001.895678) vcan0 2A0#0000002C0000002C
(0000000001.895678) vcan0 5A0#2B010087000050AB
(0000000001.895678) vcan0 540#1400FF00FF001026
(0000000001.895678) vcan0 280#0100000000000A00
(0000000001.895678) vcan0 288#4E6E200400687C60
(0000000001.895678) vcan0 480#512C000018000065
(0000000001.895678) vcan0 48A#3000000000000030
(0000000001.895678) vcan0 555#1800690029000000
(0000000001.895678) vcan0 320#22020001000E00BE
(0000000001.895678) vcan0 1A0#0043000000FE0011
(0000000001.895678) vcan0 2A0#0000002C0000103C
(0000000001.895678) vcan0 050#0025684D
(0000000001.910397) vcan0 540#2400FF00FF001026
(0000000001.910397) vcan0 5C0#499180A6250009D2
(0000000001.910397) vcan0 280#0100000000000A00
(0000000001.910397) vcan0 58C#80C02E0027000000
(0000000001.910397) vcan0 720#04010100000003
(0000000001.910397) vcan0 3D0#008108000065
(0000000001.910397) vcan0 470#8001000010
(0000000001.910397) vcan0 531#0020A080
(0000000001.910397) vcan0 1A0#0043000000FE0012
(0000000001.910397) vcan0 1AC#D309000069012092
(0000000001.910397) vcan0 2A0#0000002C0000200C
(0000000001.910397) vcan0 5A0#2B010097000050AB
(0000000001.910397) vcan0 657#7710C03F1F083040
(0000000001.910397) vcan0 540#3400FF00FF001026
(0000000001.910397) vcan0 280#0100000000000A00
(0000000001.910397) vcan0 288#4E6E200400687C60
(0000000001.926089) vcan0 480#512C000018000065
(0000000001.926089) vcan0 48A#4000000000000040
(0000000001.926089) vcan0 56A#4100000000000041
(0000000001.926089) vcan0 555#1800690029000000
(0000000001.926089) vcan0 320#22020001000F00BE
(0000000001.926089) vcan0 1A0#0043000000FE0013
(0000000001.926089) vcan0 2A0#0000002C0000301C
(0000000001.926089) vcan0 050#0025785D
(0000000001.926089) vcan0 35F#BA80000000200000
(0000000001.926089) vcan0 373#020018829022
(0000000001.926089) vcan0 540#4400FF00FF00100F
(0000000001.926089) vcan0 544#000000000000005A
(0000000001.926089) vcan0 5C0#4A9180A6250009D1
(0000000001.926089) vcan0 280#0100000000000A00
(0000000001.926089) vcan0 3D0#008108000065
(0000000001.926089) vcan0 621#205828000064AF
(0000000001.926089) vcan0 1A0#0043000000FE0014
(0000000001.926089) vcan0 1AC#D00A000069012092
(0000000001.926089) vcan0 2A0#0000002C0000406C
(0000000001.926089) vcan0 5A0#2B0100A7000050AB
(0000000001.926089) vcan0 3E1#2000270000008400
(0000000001.941429) vcan0 540#5400FF00FF00100F
(0000000001.941429) vcan0 280#0100000000000900
(0000000001.941429) vcan0 2C3#07
(0000000001.941429) vcan0 288#4E6E200400687C60
(0000000001.941429) vcan0 480#512C000018000065
(0000000001.941429) vcan0 48A#5000000000000050
(0000000001.941429) vcan0 555#1800690029000000
(0000000001.941429) vcan0 320#22020001000000BE
(0000000001.941429) vcan0 1A0#0043000000FE0015
(0000000001.941429) vcan0 2A0#0000002C0000507C
(0000000001.941429) vcan0 050#002588AD
(0000000001.941429) vcan0 540#6400FF00FF00100F
(0000000001.941429) vcan0 5C0#4B9180A6250009D0
(0000000001.941429) vcan0 280#0100000000000900
(0000000001.941429) vcan0 3D0#008108000065
(0000000001.941429) vcan0 5D0#C00469AF3655C100
(0000000001.956929) vcan0 520#B88700582855A701
(0000000001.956929) vcan0 1A0#0043000000FE0016
(0000000001.956929) vcan0 1AC#D00B000069012192
(0000000001.956929) vcan0 2A0#0000002C0000604C
(0000000001.956929) vcan0 5A0#2B0100B7000050AB
(0000000001.956929) vcan0 540#7400FF00FF00100F
(0000000001.956929) vcan0 280#0100000000000900
(0000000001.956929) vcan0 288#8B6E200400687C60
(0000000001.956929) vcan0 470#8001000010
(0000000001.956929) vcan0 480#842C0000180000B0
(0000000001.956929) vcan0 48A#6000000000000060
(0000000001.956929) vcan0 531#0020B090
(0000000001.956929) vcan0 56A#5100000000000051
(0000000001.956929) vcan0 320#22020001000100BE
(0000000001.956929) vcan0 555#1800690029000000
(0000000001.956929) vcan0 1A0#0043000000FE0017
(0000000001.956929) vcan0 575#C7220080
(0000000001.956929) vcan0 2A0#0000002C0000705C
(0000000001.956929) vcan0 050#002598BD
(0000000001.956929) vcan0 635#0000FE
(0000000001.956929) vcan0 657#7710C03F1F083040
(0000000001.956929) vcan0 550#4000400000000000
(0000000001.956929) vcan0 540#8400FF00FF001026
(0000000001.971954) vcan0 5C0#4C9180A6250009D7
(0000000001.971954) vcan0 280#0100000000000900
(0000000001.971954) vcan0 3D0#008108000065
(0000000001.971954) vcan0 631#0E010000
(0000000001.971954) vcan0 1A0#0043000000FE0018
(0000000001.971954) vcan0 1AC#D70C000069012192
(0000000001.971954) vcan0 2A0#0000002C000080AC
(0000000001.971954) vcan0 5A0#2B0100C7000050AB
(0000000001.971954) vcan0 540#9400FF00FF001026
(0000000001.971954) vcan0 280#0100000000000900
(0000000001.971954) vcan0 288#8B6E200400687C60
(0000000001.971954) vcan0 480#842C0000180000B0
(0000000001.971954) vcan0 48A#7000000000000070
(0000000001.971954) vcan0 555#1800690029000000
(0000000001.971954) vcan0 320#22020001000200BE
(0000000001.987899) vcan0 1A0#0043000000FE0019
(0000000001.987899) vcan0 2A0#0000002C000090BC
(0000000001.987899) vcan0 050#0025A88D
(0000000001.987899) vcan0 343#00A000
(0000000001.987899) vcan0 651#C00469AF3655C100
(0000000001.987899) vcan0 540#A400FF00FF001026
(0000000001.987899) vcan0 5C0#4D9180A6250009D6
(0000000001.987899) vcan0 280#0100000000000900
(0000000001.987899) vcan0 3D0#008108000065
(0000000001.987899) vcan0 658#7000010A5F820000
(0000000001.987899) vcan0 1A0#0043000000FE001A
(0000000001.987899) vcan0 1AC#EA0D000069011D92
(0000000001.987899) vcan0 2A0#0000002C0000A08C
(0000000001.987899) vcan0 5A0#2B0100D7000050AB
(0000000001.987899) vcan0 540#B400FF00FF001026
(0000000001.987899) vcan0 280#0100000000000900
(0000000001.992601) vcan0 56A#6100000000000061
(0000000001.992601) vcan0 288#8B6E200400687C60
(0000000001.992601) vcan0 480#842C0000180000B0
(0000000001.992601) vcan0 48A#8000000000000080
(0000000001.992601) vcan0 320#22020001000300BE
(0000000001.992601) vcan0 555#1800690029000000
(0000000002.002592) vcan0 1A0#0043000000FE001B
(0000000002.002592) vcan0 2A0#0000002C0000B09C
(0000000002.002592) vcan0 050#0025B89D
(0000000002.002592) vcan0 540#C400FF00FF00100F
(0000000002.002592) vcan0 5C0#4E9180A6250009D5
(0000000002.002592) vcan0 280#0100000000000900
(0000000002.002592) vcan0 58C#80C02E0027000000
(0000000002.002592) vcan0 720#04010100000003
(0000000002.002592) vcan0 3D0#008108000065
(0000000002.002592) vcan0 470#8001000010
(0000000002.002592) vcan0 531#0020C0E0
(0000000002.002592) vcan0 1A0#0043000000FE001C
(0000000002.021132) vcan0 1AC#EB0E000069011F92
(0000000002.021132) vcan0 2A0#0000002C0000C0EC
(0000000002.021132) vcan0 5A0#2B0100E7000050AB
(0000000002.021132) vcan0 657#7710C03F1F083040
(0000000002.021132) vcan0 540#D400FF00FF00100F
(0000000002.021132) vcan0 280#0100000000000900
(0000000002.021132) vcan0 288#8B6E200400687C60
(0000000002.021132) vcan0 480#842C0000180000B0
(0000000002.021132) vcan0 48A#9000000000000090
(0000000002.021132) vcan0 555#1800690029000000
(0000000002.021132) vcan0 320#22020001000400BE
(0000000002.021132) vcan0 5F3#0000000000000000
(0000000002.021132) vcan0 60E#0802
(0000000002.021132) vcan0 62F#01010101
(0000000002.021132) vcan0 727#04010100040000
(0000000002.021132) vcan0 1A0#0043000000FE001D
(0000000002.021132) vcan0 2A0#0000002C0000D0FC
(0000000002.021132) vcan0 6C8#11C2
(0000000002.021132) vcan0 050#0025C8ED
(0000000002.021132) vcan0 35F#BA80000000200000
(0000000002.021132) vcan0 373#020018829022
(0000000002.021132) vcan0 540#E400FF00FF00100F
(0000000002.021132) vcan0 544#000000000000005A
(0000000002.021132) vcan0 5C0#4F9180A6250009D4
(0000000002.021132) vcan0 280#0100000000000900
(0000000002.021132) vcan0 3D0#008108000065
(0000000002.036217) vcan0 557#6710400F1E002040
(0000000002.036217) vcan0 621#205828000064AF
(0000000002.036217) vcan0 1A0#0043000000FE001E
(0000000002.036217) vcan0 1AC#D50F000069012092
(0000000002.036217) vcan0 2A0#0000002C0000E0CC
(0000000002.036217) vcan0 5A0#2B0100F7000050AB
(0000000002.036217) vcan0 677#35C3380008000000
(0000000002.036217) vcan0 3E1#2000270000008400
(0000000002.036217) vcan0 540#F400FF00FF00100F
(0000000002.036217) vcan0 280#0100000000000900
(0000000002.036217) vcan0 220#48C00010380310
(0000000002.036217) vcan0 288#E86E200400687C60
(0000000002.036217) vcan0 2C3#07
(0000000002.036217) vcan0 480#C22C0000180000F6
(0000000002.036217) vcan0 48A#A0000000000000A0
(0000000002.036217) vcan0 56A#7100000000000071
(0000000002.036217) vcan0 320#22020001000500BE
(0000000002.036217) vcan0 555#1800690029000000
(0000000002.036217) vcan0 248#20D03803D00410
(0000000002.036217) vcan0 1A0#0043000000FE001F
(0000000002.036217) vcan0 2A0#0000002C0000F0DC
(0000000002.036217) vcan0 050#0025D8FD
(0000000002.050056) vcan0 65D#9B55A7F1F70FCE17
(0000000002.050056) vcan0 540#0400FF00FF001026
(0000000002.050056) vcan0 5C0#409180A6250009DB
(0000000002.050056) vcan0 280#0100000000000900
(0000000002.050056) vcan0 4D0#A00F8AFF4AFF
(0000000002.050056) vcan0 3D0#008108000065
(0000000002.050056) vcan0 5D0#C00469AF3655C100
(0000000002.050056) vcan0 420#8AA5A5000064FF00
(0000000002.050056) vcan0 338#A10F8AFF4AFF
(0000000002.050056) vcan0 1A0#0043000000FE0010
(0000000002.050056) vcan0 1AC#E500000069011F92
(0000000002.050056) vcan0 2A0#0000002C0000002C
(0000000002.050056) vcan0 5A0#2B010007000050AB
(0000000002.050056) vcan0 540#1400FF00FF001026
(0000000002.050056) vcan0 280#0100000000000900
(0000000002.050056) vcan0 288#E86E200400687C60
(0000000002.066498) vcan0 470#8001000010
(0000000002.066498) vcan0 480#C22C0000180000F6
(0000000002.066498) vcan0 48A#B0000000000000B0
(0000000002.066498) vcan0 555#1800690029000000
(0000000002.066498) vcan0 531#0020D0F0
(0000000002.066498) vcan0 320#22020001000600BE
(0000000002.066498) vcan0 1A0#0043000000FE0011
(0000000002.066498) vcan0 2A0#0000002C0000103C
(0000000002.066498) vcan0 050#0025E8CD
(0000000002.066498) vcan0 657#7710C03F1F083040
(0000000002.066498) vcan0 393#FB00000000000000
(0000000002.066498) vcan0 540#2400FF00FF001026
(0000000002.066498) vcan0 5C0#419180A6250009DA
(0000000002.066498) vcan0 280#0100000000000900
(0000000002.066498) vcan0 3D0#008108000065
(0000000002.066498) vcan0 4D0#10002000FF
(0000000002.066498) vcan0 338#B1
(0000000002.066498) vcan0 1A0#0043000000FE0012
(0000000002.066498) vcan0 6C8#1202
(0000000002.066498) vcan0 1AC#DB01000069012092
(0000000002.066498) vcan0 2A0#0000002C0000200C
(0000000002.066498) vcan0 67C#1AC2
(0000000002.066498) vcan0 5A0#2B010017000050AB
(0000000002.066498) vcan0 373#020018809022
(0000000002.066498) vcan0 540#3400FF00FF001026
(0000000002.080759) vcan0 280#0100000000000900
(0000000002.080759) vcan0 56A#8100000000000081
(0000000002.080759) vcan0 288#E86E200400687C60
(0000000002.080759) vcan0 480#C22C0000180000F6
(0000000002.080759) vcan0 48A#C0000000000000C0
(0000000002.080759) vcan0 320#22020001000700BE
(0000000002.080759) vcan0 555#1800690029000000
(0000000002.080759) vcan0 1A0#0043000000FE0013
(0000000002.080759) vcan0 2A0#0000002C0000301C
(0000000002.080759) vcan0 050#0025F8DD
(0000000002.080759) vcan0 343#00A000
(0000000002.080759) vcan0 651#C00469AF3655C100
(0000000002.080759) vcan0 540#4400FF00FF00100F
(0000000002.080759) vcan0 5C0#429180A6250009D9
(0000000002.080759) vcan0 280#0100000000000900
(0000000002.080759) vcan0 66C#0C42030031000301
(0000000002.080759) vcan0 3D0#008108000065
(0000000002.080759) vcan0 658#7000010A5F820000
(0000000002.097718) vcan0 338#2020011100110011
(0000000002.097718) vcan0 1A0#0043000000FE0014
(0000000002.097718) vcan0 1AC#D802000069012092
(0000000002.097718) vcan0 2A0#0000002C0000406C
(0000000002.097718) vcan0 67C#1C41
(0000000002.097718) vcan0 5A0#2B010027000050AB
(0000000002.097718) vcan0 540#5400FF00FF00100F
(0000000002.097718) vcan0 280#0100000000000900
(0000000002.097718) vcan0 288#E86E200400687C60
(0000000002.097718) vcan0 480#C22C0000180000F6
(0000000002.097718) vcan0 48A#D0000000000000D0
(0000000002.097718) vcan0 555#1800690029000000
(0000000002.097718) vcan0 320#22020001000800BE
(0000000002.097718) vcan0 338#210011000A000D00
(0000000002.097718) vcan0 1A0#0043000000FE0015
(0000000002.097718) vcan0 2A0#0000002C0000507C
(0000000002.097718) vcan0 050#0025082D
(0000000002.097718) vcan0 540#6400FF00FF00100F
(0000000002.097718) vcan0 5C0#439180A6250009D8
(0000000002.097718) vcan0 280#0100000000000900
(0000000002.114358) vcan0 58C#80C02E0027000000
(0000000002.114358) vcan0 720#04010100000003
(0000000002.114358) vcan0 3D0#008108000065
(0000000002.114358) vcan0 470#8001000010
(0000000002.114358) vcan0 531#0020E0C0
(0000000002.114358) vcan0 62E#55A7F1F70F4E18
(0000000002.114358) vcan0 338#121100
(0000000002.114358) vcan0 1A0#0043000000FE0016
(0000000002.114358) vcan0 1AC#D903000069012092
(0000000002.114358) vcan0 2A0#0000002C0000604C
(0000000002.114358) vcan0 5A0#2B010037000050AB
(0000000002.114358) vcan0 657#7710C03F1F083040
(0000000002.114358) vcan0 540#7400FF00FF00100F
(0000000002.114358) vcan0 280#0100000000000900
(0000000002.114358) vcan0 4D0#B3
(0000000002.114358) vcan0 288#366E200400687C60
(0000000002.114358) vcan0 480#1C2C000018000028
(0000000002.114358) vcan0 48A#E0000000000000E0
(0000000002.114358) vcan0 56A#9100000000000091
(0000000002.114358) vcan0 555#1800690029000000
(0000000002.114358) vcan0 320#22020001000900BE
(0000000002.114358) vcan0 1A0#0043000000FE0017
(0000000002.114358) vcan0 2A0#0000002C0000705C
(0000000002.114358) vcan0 6C8#1242
(0000000002.116873) vcan0 050#0025183D
(0000000002.116873) vcan0 35F#BA80000000200000
(0000000002.116873) vcan0 373#020018809022
(0000000002.116873) vcan0 540#8400FF00FF001026
(0000000002.116873) vcan0 544#000000000000005A
(0000000002.131556) vcan0 5C0#449180A6250009DF
(0000000002.131556) vcan0 280#0100000000000900
(0000000002.131556) vcan0 66C#80344C4103003100
(0000000002.131556) vcan0 4D0#110107
(0000000002.131556) vcan0 3D0#008108000065
(0000000002.131556) vcan0 655#7718403F1F0830C0
(0000000002.131556) vcan0 621#205828000064AF
(0000000002.131556) vcan0 338#B2
(0000000002.131556) vcan0 1A0#0043000000FE0018
(0000000002.131556) vcan0 1AC#DE04000069012092
(0000000002.131556) vcan0 2A0#0000002C000080AC
(0000000002.131556) vcan0 5A0#2B010047000050AB
(0000000002.131556) vcan0 3E1#2000270000008400
(0000000002.131556) vcan0 540#9400FF00FF001026
(0000000002.131556) vcan0 280#0100000000000900
(0000000002.131556) vcan0 2C3#07
(0000000002.131556) vcan0 288#366E200400687C60
(0000000002.131556) vcan0 480#1C2C000018000028
(0000000002.131556) vcan0 48A#F0000000000000F0
(0000000002.131556) vcan0 555#1800690029000000
(0000000002.131556) vcan0 320#22020001000A00BE
(0000000002.144389) vcan0 1A0#0043000000FE0019
(0000000002.144389) vcan0 2A0#0000002C000090BC
(0000000002.144389) vcan0 050#0025280D
(0000000002.144389) vcan0 661#8000000000000000
(0000000002.144389) vcan0 540#A400FF00FF001026
(0000000002.144389) vcan0 5C0#459180A6250009DE
(0000000002.144389) vcan0 280#0100000000000900
(0000000002.144389) vcan0 3D0#008108000065
(0000000002.144389) vcan0 5D0#C00469AF3655C100
(0000000002.144389) vcan0 520#57C400582855A701
(0000000002.144389) vcan0 338#1321003F006E00A6
(0000000002.144389) vcan0 1A0#0043000000FE001A
(0000000002.144389) vcan0 1AC#DF05000069012092
(0000000002.144389) vcan0 2A0#0000002C0000A08C
(0000000002.144389) vcan0 5A0#2B010057000050AB
(0000000002.149390) vcan0 540#B400FF00FF001026
(0000000002.149390) vcan0 280#0100000000000900
(0000000002.149390) vcan0 4D0#B4
(0000000002.160811) vcan0 288#366E200400687C60
(0000000002.160811) vcan0 480#1C2C000018000028
(0000000002.160811) vcan0 470#8001000010
(0000000002.160811) vcan0 48A#0000000000000000
(0000000002.160811) vcan0 320#22020001000B00BE
(0000000002.160811) vcan0 56A#A1000000000000A1
(0000000002.160811) vcan0 555#1800690029000000
(0000000002.160811) vcan0 1A0#0043000000FE001B
(0000000002.160811) vcan0 531#0020F0D0
(0000000002.160811) vcan0 2A0#0000002C0000B09C
(0000000002.160811) vcan0 575#C7220080
(0000000002.160811) vcan0 050#0025381D
(0000000002.160811) vcan0 657#7710C03F1F083040
(0000000002.160811) vcan0 550#4000400000000000
(0000000002.160811) vcan0 635#0000FE
(0000000002.160811) vcan0 540#C400FF00FF00100F
(0000000002.160811) vcan0 5C0#469180A6250009DD
(0000000002.160811) vcan0 280#0100000000000900
(0000000002.160811) vcan0 4D0#120113
(0000000002.160811) vcan0 3D0#008108000065
(0000000002.175981) vcan0 338#B3
(0000000002.175981) vcan0 1A0#0043000000FE001C
(0000000002.175981) vcan0 6C8#1302
(0000000002.175981) vcan0 1AC#DC06000069012092
(0000000002.175981) vcan0 2A0#0000002C0000C0EC
(0000000002.175981) vcan0 66C#C0030108003803FF
(0000000002.175981) vcan0 5A0#2B010067000050AB
(0000000002.175981) vcan0 540#D400FF00FF00100F
(0000000002.175981) vcan0 280#0100000000000900
(0000000002.175981) vcan0 288#366E200400687C60
(0000000002.175981) vcan0 480#1C2C000018000028
(0000000002.175981) vcan0 48A#1000000000000010
(0000000002.175981) vcan0 555#1800690029000000
(0000000002.175981) vcan0 320#22020001000C00BE
(0000000002.175981) vcan0 1A0#0043000000FE001D
(0000000002.175981) vcan0 2A0#0000002C0000D0FC
(0000000002.175981) vcan0 050#0025486D
(0000000002.175981) vcan0 343#00A000
(0000000002.175981) vcan0 651#C00469AF3655C100
(0000000002.191929) vcan0 540#E400FF00FF00100F
(0000000002.191929) vcan0 5C0#479180A6250009DC
(0000000002.191929) vcan0 280#0100000000000900
(0000000002.191929) vcan0 3D0#008108000065
(0000000002.191929) vcan0 658#7000010A5F820000
(0000000002.191929) vcan0 338#14210004006E0059
(0000000002.191929) vcan0 1A0#0043000000FE001E
(0000000002.191929) vcan0 1AC#DD07000069012092
(0000000002.191929) vcan0 2A0#0000002C0000E0CC
(0000000002.191929) vcan0 5A0#2B010077000050AB
(0000000002.191929) vcan0 540#F400FF00FF00100F
(0000000002.191929) vcan0 280#0100000000000900
(0000000002.191929) vcan0 4D0#B5
(0000000002.191929) vcan0 56A#B1000000000000B1
(0000000002.191929) vcan0 288#4E6E200400687C60
(0000000002.191929) vcan0 480#512C000018000065
(0000000002.191929) vcan0 320#22020001000D00BE
(0000000002.206480) vcan0 48A#2000000000000020
(0000000002.206480) vcan0 555#1800690029000000
(0000000002.206480) vcan0 1A0#0043000000FE001F
(0000000002.206480) vcan0 2A0#0000002C0000F0DC
(0000000002.206480) vcan0 050#0025587D
(0000000002.206480) vcan0 540#0400FF00FF001026
(0000000002.206480) vcan0 5C0#489180A6250009D3
(0000000002.206480) vcan0 280#0100000000000900
(0000000002.206480) vcan0 58C#80C02E0027000000
(0000000002.206480) vcan0 66C#C1FC000000000A1E
(0000000002.206480) vcan0 720#04010100000003
(0000000002.206480) vcan0 3D0#008108000065
(0000000002.206480) vcan0 470#8001000010
(0000000002.206480) vcan0 4D0#A8
(0000000002.206480) vcan0 338#A8
(0000000002.206480) vcan0 1A0#0043000000FE0010
(0000000002.206480) vcan0 1AC#D208000069012092
(0000000002.206480) vcan0 531#00200020
(0000000002.206480) vcan0 2A0#0000002C0000002C
(0000000002.206480) vcan0 5A0#2B010087000050AB
(0000000002.206480) vcan0 657#7710C03F1F083040
(0000000002.206480) vcan0 540#1400FF00FF001026
(0000000002.223201) vcan0 280#0100000000000900
(0000000002.223201) vcan0 288#4E6E200400687C60
(0000000002.223201) vcan0 480#512C000018000065
(0000000002.223201) vcan0 48A#3000000000000030
(0000000002.223201) vcan0 555#1800690029000000
(0000000002.223201) vcan0 320#22020001000E00BE
(0000000002.223201) vcan0 62F#01010101
(0000000002.223201) vcan0 727#04010100040000
(0000000002.223201) vcan0 1A0#0043000000FE0011
(0000000002.223201) vcan0 6C8#1342
(0000000002.223201) vcan0 2A0#0000002C0000103C
(0000000002.223201) vcan0 050#0025684D
(0000000002.223201) vcan0 35F#BA80000000200000
(0000000002.223201) vcan0 373#020018809022
(0000000002.223201) vcan0 540#2400FF00FF001026
(0000000002.223201) vcan0 544#000000000000005A
(0000000002.223201) vcan0 5C0#499180A6250009D2
(0000000002.223201) vcan0 280#0100000000000900
(0000000002.223201) vcan0 220#48C00010380310
(0000000002.223201) vcan0 3D0#008108000065
(0000000002.223201) vcan0 621#205828000064AF
(0000000002.223201) vcan0 248#20D03803D00410
(0000000002.223201) vcan0 1A0#0043000000FE0012
(0000000002.240778) vcan0 1AC#EC09000069011F92
(0000000002.240778) vcan0 2A0#0000002C0000200C
(0000000002.240778) vcan0 5A0#2B010097000050AB
(0000000002.240778) vcan0 3E1#2000270000008400
(0000000002.240778) vcan0 540#3400FF00FF001026
(0000000002.240778) vcan0 280#0100000000000900
(0000000002.240778) vcan0 2C3#07
(0000000002.240778) vcan0 288#4E6E200400687C60
(0000000002.240778) vcan0 480#512C000018000065
(0000000002.240778) vcan0 48A#4000000000000040
(0000000002.240778) vcan0 56A#C1000000000000C1
(0000000002.240778) vcan0 320#22020001000F00BE
(0000000002.240778) vcan0 4D0#A00F8AFF4AFF
(0000000002.240778) vcan0 555#1800690029000000
(0000000002.240778) vcan0 1A0#0043000000FE0013
(0000000002.240778) vcan0 2A0#0000002C0000301C
(0000000002.240778) vcan0 66C#C201000000000100
(0000000002.240778) vcan0 050#0025785D
(0000000002.240778) vcan0 540#4400FF00FF00100F
(0000000002.240778) vcan0 5C0#4A9180A6250009D1
(0000000002.240778) vcan0 280#0100000000000900
(0000000002.240778) vcan0 3D0#008108000065
(0000000002.252927) vcan0 5D0#C00469AF3655C100
(0000000002.252927) vcan0 420#8AA5A5000064FF00
(0000000002.252927) vcan0 338#A10F8AFF4AFF
(0000000002.252927) vcan0 1A0#0043000000FE0014
(0000000002.252927) vcan0 1AC#D00A000069012092
(0000000002.252927) vcan0 2A0#0000002C0000406C
(0000000002.252927) vcan0 5A0#2B0100A7000050AB
(0000000002.252927) vcan0 540#5400FF00FF00100F
(0000000002.252927) vcan0 280#0100000000000900
(0000000002.252927) vcan0 288#4E6E200400687C60
(0000000002.252927) vcan0 480#512C000018000065
(0000000002.252927) vcan0 470#8001000010
(0000000002.252927) vcan0 48A#5000000000000050
(0000000002.252927) vcan0 555#1800690029000000
(0000000002.252927) vcan0 531#00201030
(0000000002.252927) vcan0 320#22020001000000BE
(0000000002.252927) vcan0 1A0#0043000000FE0015
(0000000002.252927) vcan0 2A0#0000002C0000507C
(0000000002.255977) vcan0 050#002588AD
(0000000002.255977) vcan0 657#7710C03F1F083040
(0000000002.270538) vcan0 393#FB00000000000000
(0000000002.270538) vcan0 540#6400FF00FF00100F
(0000000002.270538) vcan0 5C0#4B9180A6250009D0
(0000000002.270538) vcan0 280#0100000000000900
(0000000002.270538) vcan0 3D0#008108000065
(0000000002.270538) vcan0 4D0#20027020074C7563
(0000000002.270538) vcan0 1A0#0043000000FE0016
(0000000002.270538) vcan0 6C8#1382
(0000000002.270538) vcan0 1AC#EE0B000069011F92
(0000000002.270538) vcan0 2A0#0000002C0000604C
(0000000002.270538) vcan0 5A0#2B0100B7000050AB
(0000000002.270538) vcan0 540#7400FF00FF00100F
(0000000002.270538) vcan0 280#0100000000000900
(0000000002.270538) vcan0 4D0#216573A026A05669
(0000000002.284683) vcan0 288#8B6E200400687C60
(0000000002.284683) vcan0 480#842C0000180000B0
(0000000002.284683) vcan0 48A#6000000000000060
(0000000002.284683) vcan0 56A#D1000000000000D1
(0000000002.284683) vcan0 320#22020001000100BE
(0000000002.284683) vcan0 66C#C300090000000600
(0000000002.284683) vcan0 555#1800690029000000
(0000000002.284683) vcan0 1A0#0043000000FE0017
(0000000002.284683) vcan0 2A0#0000002C0000705C
(0000000002.284683) vcan0 050#002598BD
(0000000002.284683) vcan0 343#00A000
(0000000002.284683) vcan0 651#C00469AF3655C100
(0000000002.284683) vcan0 540#8400FF00FF001026
(0000000002.284683) vcan0 5C0#4C9180A6250009D7
(0000000002.284683) vcan0 280#0100000000000900
(0000000002.284683) vcan0 4D0#12736962696C2E
(0000000002.284683) vcan0 3D0#008108000065
(0000000002.284683) vcan0 658#7000010A5F820000
(0000000002.284683) vcan0 338#B3
(0000000002.284683) vcan0 1A0#0043000000FE0018
(0000000002.284683) vcan0 1AC#D60C000069012092
(0000000002.284683) vcan0 2A0#0000002C000080AC
(0000000002.284683) vcan0 5A0#2B0100C7000050AB
(0000000002.286710) vcan0 540#9400FF00FF001026
(0000000002.300885) vcan0 280#0100000000000900
(0000000002.300885) vcan0 288#8B6E200400687C60
(0000000002.300885) vcan0 480#842C0000180000B0
(0000000002.300885) vcan0 48A#7000000000000070
(0000000002.300885) vcan0 555#1800690029000000
(0000000002.300885) vcan0 320#22020001000200BE
(0000000002.300885) vcan0 1A0#0043000000FE0019
(0000000002.300885) vcan0 2A0#0000002C000090BC
(0000000002.300885) vcan0 050#0025A88D
(0000000002.300885) vcan0 540#A400FF00FF001026
(0000000002.300885) vcan0 5C0#4D9180A6250009D6
(0000000002.300885) vcan0 280#0100000000000900
(0000000002.300885) vcan0 58C#80C02E0027000000
(0000000002.300885) vcan0 720#04010100000003
(0000000002.300885) vcan0 470#8001000010
(0000000002.300885) vcan0 3D0#008108000065
(0000000002.315936) vcan0 531#00202000
(0000000002.315936) vcan0 338#1023000000
(0000000002.315936) vcan0 1A0#0043000000FE001A
(0000000002.315936) vcan0 1AC#E90D000069011E92
(0000000002.315936) vcan0 2A0#0000002C0000A08C
(0000000002.315936) vcan0 5A0#2B0100D7000050AB
(0000000002.315936) vcan0 66C#C400000000000000
(0000000002.315936) vcan0 657#7710C03F1F083040
(0000000002.315936) vcan0 540#B400FF00FF001026
(0000000002.315936) vcan0 280#0100000000000900
(0000000002.315936) vcan0 4D0#B1
(0000000002.315936) vcan0 56A#E1000000000000E1
(0000000002.315936) vcan0 288#8B6E200400687C60
(0000000002.315936) vcan0 480#842C0000180000B0
(0000000002.315936) vcan0 48A#8000000000000080
(0000000002.315936) vcan0 320#22020001000300BE
(0000000002.315936) vcan0 555#1800690029000000
(0000000002.315936) vcan0 1A0#0043000000FE001B
(0000000002.315936) vcan0 2A0#0000002C0000B09C
(0000000002.315936) vcan0 050#0025B89D
(0000000002.330738) vcan0 35F#BA80000000200000
(0000000002.330738) vcan0 373#020018809022
(0000000002.330738) vcan0 540#C400FF00FF00100F
(0000000002.330738) vcan0 544#000000000000005A
(0000000002.330738) vcan0 5C0#4E9180A6250009D5
(0000000002.330738) vcan0 280#0100000000000900
(0000000002.330738) vcan0 4D0#A8
(0000000002.330738) vcan0 3D0#008108000065
(0000000002.330738) vcan0 621#205828000064AF
(0000000002.330738) vcan0 338#A8
(0000000002.330738) vcan0 1A0#0043000000FE001C
(0000000002.330738) vcan0 1AC#EB0E000069011F92
(0000000002.330738) vcan0 2A0#0000002C0000C0EC
(0000000002.330738) vcan0 5A0#2B0100E7000050AB
(0000000002.330738) vcan0 3E1#2000270000008400
(0000000002.330738) vcan0 540#D400FF00FF00100F
(0000000002.330738) vcan0 2C3#07
(0000000002.330738) vcan0 280#0100000000000900
(0000000002.330738) vcan0 288#8B6E200400687C60
(0000000002.330738) vcan0 480#842C0000180000B0
(0000000002.330738) vcan0 48A#9000000000000090
(0000000002.347410) vcan0 555#1800690029000000
(0000000002.347410) vcan0 320#22020001000400BE
(0000000002.347410) vcan0 1A0#0043000000FE001D
(0000000002.347410) vcan0 2A0#0000002C0000D0FC
(0000000002.347410) vcan0 050#0025C8ED
(0000000002.347410) vcan0 540#E400FF00FF00100F
(0000000002.347410) vcan0 5C0#4F9180A6250009D4
(0000000002.347410) vcan0 280#0100000000000900
(0000000002.347410) vcan0 66C#C505000000000000
(0000000002.347410) vcan0 3D0#008108000065
(0000000002.347410) vcan0 5D0#C00469AF3655C100
(0000000002.347410) vcan0 520#050300582855A701
(0000000002.347410) vcan0 1A0#0043000000FE001E
(0000000002.347410) vcan0 1AC#D70F000069012292
(0000000002.347410) vcan0 2A0#0000002C0000E0CC
(0000000002.347410) vcan0 5A0#2B0100F7000050AB
(0000000002.347410) vcan0 540#F400FF00FF00100F
(0000000002.363479) vcan0 280#0100000000000900
(0000000002.363479) vcan0 470#8001000010
(0000000002.363479) vcan0 288#E86E200400687C60
(0000000002.363479) vcan0 480#C22C0000180000F6
(0000000002.363479) vcan0 48A#A0000000000000A0
(0000000002.363479) vcan0 531#00203010
(0000000002.363479) vcan0 320#60028501000500BE
(0000000002.363479) vcan0 56A#F1000000000000F1
(0000000002.363479) vcan0 555#1800690029000000
(0000000002.363479) vcan0 1A0#0043000000FE001F
(0000000002.363479) vcan0 2A0#0000002C0000F0DC
(0000000002.363479) vcan0 575#C7220080
(0000000002.363479) vcan0 635#0000FE
(0000000002.363479) vcan0 050#0025D8FD
(0000000002.363479) vcan0 657#7710C03F1F083040
(0000000002.363479) vcan0 550#4000400000000000
(0000000002.363479) vcan0 540#0400FF00FF001026
(0000000002.363479) vcan0 5C0#409180A6250009DB
(0000000002.363479) vcan0 280#0100000000000900
(0000000002.363479) vcan0 3D0#008108000065
(0000000002.363479) vcan0 58F#00F0FF7F00000018
(0000000002.363479) vcan0 1A0#0043000000FE0010
(0000000002.363479) vcan0 1AC#DB00000069012192
(0000000002.381058) vcan0 2A0#0000002C0000002C
(0000000002.381058) vcan0 5A0#2B010007000050AB
(0000000002.381058) vcan0 540#1400FF00FF001026
(0000000002.381058) vcan0 280#0100000000000900
(0000000002.381058) vcan0 288#E86E200400687C60
(0000000002.381058) vcan0 480#C22C0000180000F6
(0000000002.381058) vcan0 48A#B0000000000000B0
(0000000002.381058) vcan0 555#1800690029000000
(0000000002.381058) vcan0 320#60028501000600BE
(0000000002.381058) vcan0 1A0#0043000000FE0011
(0000000002.381058) vcan0 2A0#0000002C0000103C
(0000000002.381058) vcan0 66C#4C520500
(0000000002.381058) vcan0 050#0025E8CD
(0000000002.381058) vcan0 343#00A000
(0000000002.381058) vcan0 651#C00469AF3655C100
(0000000002.381058) vcan0 540#2400FF00FF001026
(0000000002.381058) vcan0 5C0#419180A6250009DA
(0000000002.381058) vcan0 280#0100000000000900
(0000000002.381058) vcan0 3D0#008108000065
(0000000002.395615) vcan0 658#7000010A5F820000
(0000000002.395615) vcan0 1A0#0043000000FE0012
(0000000002.395615) vcan0 1AC#E401000069011F92
(0000000002.395615) vcan0 2A0#0000002C0000200C
(0000000002.395615) vcan0 5A0#2B010017000050AB
(0000000002.395615) vcan0 540#3400FF00FF001026
(0000000002.395615) vcan0 280#0100000000000900
(0000000002.395615) vcan0 56A#0100000000000001
(0000000002.395615) vcan0 288#E86E200400687C60
(0000000002.395615) vcan0 480#C22C0000180000F6
(0000000002.395615) vcan0 48A#C0000000000000C0
(0000000002.395615) vcan0 320#60028501000700BE
(0000000002.395615) vcan0 555#1800690029000000
(0000000002.395615) vcan0 1A0#0043000000FE0013
(0000000002.395615) vcan0 2A0#0000002C0000301C
(0000000002.395615) vcan0 050#0025F8DD
(0000000002.411505) vcan0 540#4400FF00FF00100F
(0000000002.411505) vcan0 5C0#429180A6250009D9
(0000000002.411505) vcan0 280#0100000000000900
(0000000002.411505) vcan0 58C#80C02E0027000000
(0000000002.411505) vcan0 720#04010100000003
(0000000002.411505) vcan0 3D0#008108000065
(0000000002.411505) vcan0 470#8001000010
(0000000002.411505) vcan0 1A0#0043000000FE0014
(0000000002.411505) vcan0 1AC#D802000069012092
(0000000002.411505) vcan0 2A0#0000002C0000406C
(0000000002.411505) vcan0 531#00204060
(0000000002.411505) vcan0 5A0#2B010027000050AB
(0000000002.411505) vcan0 657#7710C03F1F083040
(0000000002.411505) vcan0 540#5400FF00FF00100F
(0000000002.411505) vcan0 280#0100000000000900
(0000000002.411505) vcan0 66C#C60200000000FF
(0000000002.411505) vcan0 288#E86E200400687C60
(0000000002.411505) vcan0 480#C22C0000180000F6
(0000000002.411505) vcan0 48A#D0000000000000D0
(0000000002.411505) vcan0 555#1800690029000000
(0000000002.428116) vcan0 320#60028501000800BE
(0000000002.428116) vcan0 62F#01010101
(0000000002.428116) vcan0 727#04010100040000
(0000000002.428116) vcan0 1A0#0043000000FE0015
(0000000002.428116) vcan0 2A0#0000002C0000507C
(0000000002.428116) vcan0 050#0025082D
(0000000002.428116) vcan0 35F#BA80000000200000
(0000000002.428116) vcan0 373#020018809022
(0000000002.428116) vcan0 540#6400FF00FF00100F
(0000000002.428116) vcan0 544#000000000000005A
(0000000002.428116) vcan0 5C0#439180A6250009D8
(0000000002.428116) vcan0 280#0100000000000900
(0000000002.428116) vcan0 3D0#008108000065
(0000000002.428116) vcan0 621#225828850064AF
(0000000002.428116) vcan0 1A0#0043000000FE0016
(0000000002.428116) vcan0 1AC#D903000069012092
(0000000002.428116) vcan0 2A0#0000002C0000604C
(0000000002.428116) vcan0 5A0#2B010037000050AB
(0000000002.428116) vcan0 3E1#2000270000008400
(0000000002.428116) vcan0 540#7400FF00FF00100F
(0000000002.428116) vcan0 280#0100000000000900
(0000000002.430113) vcan0 2C3#07
(0000000002.442152) vcan0 56A#1100000000000011
(0000000002.442152) vcan0 288#366E200400687C60
(0000000002.442152) vcan0 480#1C2C000018000028
(0000000002.442152) vcan0 48A#E0000000000000E0
(0000000002.442152) vcan0 555#1800690029000000
(0000000002.442152) vcan0 320#60028501000900BE
(0000000002.442152) vcan0 1A0#0043000000FE0017
(0000000002.442152) vcan0 2A0#0000002C0000705C
(0000000002.442152) vcan0 050#0025183D
(0000000002.442152) vcan0 540#8400FF00FF001026
(0000000002.442152) vcan0 5C0#449180A6250009DF
(0000000002.442152) vcan0 280#0100000000000900
(0000000002.442152) vcan0 3D0#008108000065
(0000000002.442152) vcan0 5D0#C00469AF3655C100
(0000000002.442152) vcan0 420#8AA5A5000064FF00
(0000000002.442152) vcan0 1A0#0043000000FE0018
(0000000002.460559) vcan0 1AC#E104000069011F92
(0000000002.460559) vcan0 2A0#0000002C000080AC
(0000000002.460559) vcan0 5A0#2B010047000050AB
(0000000002.460559) vcan0 3E3#FFFFFF0000FE00FF
(0000000002.460559) vcan0 540#9400FF00FF001026
(0000000002.460559) vcan0 280#0100000000000900
(0000000002.460559) vcan0 288#366E200400687C60
(0000000002.460559) vcan0 470#8001000010
(0000000002.460559) vcan0 480#1C2C000018000028
(0000000002.460559) vcan0 48A#F0000000000000F0
(0000000002.460559) vcan0 555#1800690029000000
(0000000002.460559) vcan0 531#00205070
(0000000002.460559) vcan0 320#60028501000A00BE
(0000000002.460559) vcan0 1A0#0043000000FE0019
(0000000002.460559) vcan0 2A0#0000002C000090BC
(0000000002.460559) vcan0 050#0025280D
(0000000002.460559) vcan0 657#7710C03F1F083040
(0000000002.460559) vcan0 393#FB00000000000000
(0000000002.460559) vcan0 540#A400FF00FF001026
(0000000002.460559) vcan0 5C0#459180A6250009DE
(0000000002.460559) vcan0 280#0100000000000900
(0000000002.460559) vcan0 3D0#008108000065
(0000000002.462575) vcan0 1A0#0043000000FE001A
(0000000002.476008) vcan0 1AC#DF05000069012092
(0000000002.476008) vcan0 2A0#0000002C0000A08C
(0000000002.476008) vcan0 5A0#2B010057000050AB
(0000000002.476008) vcan0 540#B400FF00FF001026
(0000000002.476008) vcan0 280#0100000000000900
(0000000002.476008) vcan0 288#366E200400687C60
(0000000002.476008) vcan0 480#1C2C000018000028
(0000000002.476008) vcan0 48A#0000000000000000
(0000000002.476008) vcan0 56A#2100000000000021
(0000000002.476008) vcan0 320#60028501000B00BE
(0000000002.476008) vcan0 555#1800690029000000
(0000000002.476008) vcan0 1A0#0043000000FE001B
(0000000002.476008) vcan0 2A0#0000002C0000B09C
(0000000002.476008) vcan0 050#0025381D
(0000000002.476008) vcan0 343#00A000
(0000000002.476008) vcan0 651#C00469AF3655C100
(0000000002.490510) vcan0 540#C400FF00FF00100F
(0000000002.490510) vcan0 5C0#469180A6250009DD
(0000000002.490510) vcan0 280#0100000000000900
(0000000002.490510) vcan0 3D0#008108000065
(0000000002.490510) vcan0 658#7000010A5F820000
(0000000002.490510) vcan0 1A0#0043000000FE001C
(0000000002.490510) vcan0 1AC#DC06000069012092
(0000000002.490510) vcan0 2A0#0000002C0000C0EC
(0000000002.490510) vcan0 5A0#2B010067000050AB
(0000000002.490510) vcan0 540#D400FF00FF00100F
(0000000002.490510) vcan0 280#0100000000000900
(0000000002.490510) vcan0 288#366E200400687C60
(0000000002.507063) vcan0 480#1C2C000018000028
(0000000002.507063) vcan0 48A#1000000000000010
(0000000002.507063) vcan0 555#1800690029000000
(0000000002.507063) vcan0 320#60028501000C00BE
(0000000002.507063) vcan0 1A0#0043000000FE001D
(0000000002.507063) vcan0 2A0#0000002C0000D0FC
(0000000002.507063) vcan0 050#0025486D
(0000000002.507063) vcan0 540#E400FF00FF00100F
(0000000002.507063) vcan0 5C0#479180A6250009DC
(0000000002.507063) vcan0 280#0100000000000900
(0000000002.507063) vcan0 58C#80C02E0027000000
(0000000002.507063) vcan0 720#04010100000003
(0000000002.507063) vcan0 3D0#008108000065
(0000000002.507063) vcan0 470#8001000010
(0000000002.507063) vcan0 531#00206040
(0000000002.507063) vcan0 1A0#0043000000FE001E
(0000000002.507063) vcan0 1AC#DD07000069012092
(0000000002.507063) vcan0 2A0#0000002C0000E0CC
(0000000002.507063) vcan0 5A0#2B010077000050AB
(0000000002.507063) vcan0 657#7710C03F1F083040
(0000000002.520623) vcan0 540#F400FF00FF00100F
(0000000002.520623) vcan0 280#0100000000000900
(0000000002.520623) vcan0 288#4E6E200400687C60
(0000000002.520623) vcan0 480#512C000018000065
(0000000002.520623) vcan0 48A#2000000000000020
(0000000002.520623) vcan0 56A#3100000000000031
(0000000002.520623) vcan0 320#60028501000D00BE
(0000000002.520623) vcan0 555#1800690029000000
(0000000002.520623) vcan0 5F3#0000000000000000
(0000000002.520623) vcan0 1A0#0043000000FE001F
(0000000002.520623) vcan0 2A0#0000002C0000F0DC
(0000000002.520623) vcan0 050#0025587D
(0000000002.520623) vcan0 35F#BA80000000200000
(0000000002.520623) vcan0 373#020018809022
(0000000002.520623) vcan0 540#0400FF00FF001026
(0000000002.520623) vcan0 544#000000000000005A
(0000000002.520623) vcan0 5C0#489180A6250009D3
(0000000002.520623) vcan0 280#0100000000000900
(0000000002.520623) vcan0 3D0#008108000065
(0000000002.535483) vcan0 557#6710400F1E002040
(0000000002.535483) vcan0 621#225828850064AF
(0000000002.535483) vcan0 1A0#0043000000FE0010
(0000000002.535483) vcan0 1AC#D208000069012092
(0000000002.535483) vcan0 2A0#0000002C0000002C
(0000000002.535483) vcan0 5A0#2B010087000050AB
(0000000002.535483) vcan0 3E1#2000270000008400
(0000000002.535483) vcan0 540#1400FF00FF001026
(0000000002.535483) vcan0 280#0100000000000900
(0000000002.535483) vcan0 2C3#07
(0000000002.535483) vcan0 288#4E6E200400687C60
(0000000002.535483) vcan0 480#512C000018000065
(0000000002.535483) vcan0 48A#3000000000000030
(0000000002.535483) vcan0 555#1800690029000000
(0000000002.535483) vcan0 320#60028501000E00BE
(0000000002.535483) vcan0 1A0#0043000000FE0011
(0000000002.535483) vcan0 2A0#0000002C0000103C
(0000000002.535483) vcan0 050#0025684D
(0000000002.551545) vcan0 540#2400FF00FF001026
(0000000002.551545) vcan0 5C0#499180A6250009D2
(0000000002.551545) vcan0 280#0100000000000900
(0000000002.551545) vcan0 3D0#008108000065
(0000000002.551545) vcan0 5D0#C00469AF3655C100
(0000000002.551545) vcan0 520#644400582855A701
(0000000002.551545) vcan0 1A0#0043000000FE0012
(0000000002.551545) vcan0 1AC#D309000069012092
(0000000002.551545) vcan0 2A0#0000002C0000200C
(0000000002.551545) vcan0 5A0#2B010097000050AB
(0000000002.551545) vcan0 540#3400FF00FF001026
(0000000002.551545) vcan0 280#0100000000000900
(0000000002.551545) vcan0 470#8001000010
(0000000002.551545) vcan0 56A#4100000000000041
(0000000002.551545) vcan0 288#4E6E200400687C60
